***BUSMASTER Ver 3.2.2***
***PROTOCOL CAN***
***NOTE: PLEASE DO NOT EDIT THIS DOCUMENT***
***[START LOGGING SESSION]***
***START DATE AND TIME 7:12:2023 15:33:35:674***
***DEC***
***SYSTEM MODE***
***START CHANNEL BAUD RATE***
***CHANNEL 1 - PCAN-USB Driver Id 16 - 500000 bps***
***END CHANNEL BAUD RATE***
***START DATABASE FILES***
***C:\Users\w.petersen\Documents\CAN\DBF\CSI_eWH70MV_Rev0.dbf***
***END DATABASE FILES***
***<Time><Tx/Rx><Channel><CAN ID><Type><DLC><DataBytes>***
15:33:35:9709 Rx 1 0624 s 8 000 066 066 003 128 001 000 107 
15:33:36:3722 Rx 1 0624 s 8 000 066 066 003 128 001 000 107 
15:33:36:7736 Rx 1 0624 s 8 000 066 066 003 128 001 000 107 
15:33:37:1750 Rx 1 0624 s 8 000 066 066 003 128 001 000 107 
15:33:37:5765 Rx 1 0624 s 8 000 066 066 003 128 001 000 107 
15:33:37:9780 Rx 1 0624 s 8 000 066 066 003 128 001 000 107 
15:33:38:1385 Tx 1 0616 s 8 000 000 000 000 000 045 001 000 
15:33:38:3794 Rx 1 0624 s 8 000 066 066 000 000 000 000 107 
15:33:38:7807 Rx 1 0624 s 8 000 066 066 000 000 000 000 107 
15:33:38:9129 Tx 1 0616 s 8 000 000 000 000 000 045 001 000 
15:33:39:1821 Rx 1 0624 s 8 000 066 066 000 000 000 000 107 
15:33:39:5836 Rx 1 0624 s 8 000 066 066 000 000 000 000 107 
15:33:39:7052 Tx 1 0616 s 8 000 000 000 000 000 045 001 000 
15:33:39:9850 Rx 1 0624 s 8 000 066 066 000 000 000 000 107 
15:33:40:3863 Rx 1 0624 s 8 000 066 066 000 000 000 000 107 
15:33:40:4924 Tx 1 0616 s 8 000 000 000 000 000 045 001 000 
15:33:40:7878 Rx 1 0624 s 8 000 066 066 000 000 000 000 107 
15:33:41:1893 Rx 1 0624 s 8 000 066 066 000 000 000 000 107 
15:33:41:2793 Tx 1 0616 s 8 000 000 000 000 000 045 001 000 
15:33:41:5909 Rx 1 0624 s 8 000 066 066 000 000 000 000 107 
15:33:41:9920 Rx 1 0624 s 8 000 066 066 000 000 000 000 107 
15:33:42:0747 Tx 1 0616 s 8 000 000 000 000 000 045 001 000 
15:33:42:3934 Rx 1 0624 s 8 000 066 066 000 000 000 000 107 
15:33:42:7950 Rx 1 0624 s 8 000 066 066 000 000 000 000 107 
15:33:42:8531 Tx 1 0616 s 8 000 000 000 000 000 045 001 000 
15:33:43:1963 Rx 1 0624 s 8 000 066 066 000 000 000 000 107 
15:33:43:5977 Rx 1 0624 s 8 000 066 066 000 000 000 000 107 
15:33:43:6203 Tx 1 0616 s 8 000 000 000 000 000 045 001 000 
15:33:43:9992 Rx 1 0624 s 8 000 066 066 000 000 000 000 107 
15:33:44:3885 Tx 1 0616 s 8 000 000 000 000 000 045 001 000 
15:33:44:4005 Rx 1 0624 s 8 000 066 066 000 000 000 000 107 
15:33:44:8019 Rx 1 0624 s 8 000 066 066 000 000 000 000 107 
15:33:45:1577 Tx 1 0616 s 8 000 000 000 000 000 045 001 000 
15:33:45:2033 Rx 1 0624 s 8 000 066 066 000 000 000 000 107 
15:33:45:6047 Rx 1 0624 s 8 000 066 066 000 000 000 000 107 
15:33:45:6099 Tx 1 0616 s 8 000 000 000 000 000 045 001 000 
15:33:45:9553 Tx 1 0616 s 8 000 000 000 000 000 045 001 000 
15:33:46:0062 Rx 1 0624 s 8 000 066 066 000 000 000 000 107 
15:33:46:4076 Rx 1 0624 s 8 000 066 066 000 000 000 000 107 
15:33:46:7358 Tx 1 0616 s 8 000 000 000 000 000 045 001 000 
15:33:46:8090 Rx 1 0624 s 8 000 066 066 000 000 000 000 107 
15:33:47:2104 Rx 1 0624 s 8 000 066 066 000 000 000 000 107 
15:33:47:5144 Tx 1 0616 s 8 000 000 000 000 000 045 001 000 
15:33:47:6118 Rx 1 0624 s 8 000 066 066 000 000 000 000 107 
15:33:48:0134 Rx 1 0624 s 8 000 066 066 000 000 000 000 107 
15:33:48:2808 Tx 1 0616 s 8 000 000 000 000 000 045 001 000 
15:33:48:4147 Rx 1 0624 s 8 000 066 066 000 000 000 000 107 
15:33:48:8160 Rx 1 0624 s 8 000 066 066 000 000 000 000 107 
15:33:49:0704 Tx 1 0616 s 8 000 000 000 000 000 045 001 000 
15:33:49:2175 Rx 1 0624 s 8 000 066 066 000 000 000 000 107 
15:33:49:6189 Rx 1 0624 s 8 000 066 066 000 000 000 000 107 
15:33:49:8542 Tx 1 0616 s 8 000 000 000 000 000 045 001 000 
15:33:50:0203 Rx 1 0624 s 8 000 066 066 000 000 000 000 107 
15:33:50:4218 Rx 1 0624 s 8 000 066 066 000 000 000 000 107 
15:33:50:6561 Tx 1 0616 s 8 000 000 000 000 000 045 001 000 
15:33:50:8232 Rx 1 0624 s 8 000 066 066 000 000 000 000 107 
15:33:51:2246 Rx 1 0624 s 8 000 066 066 000 000 000 000 107 
15:33:51:4643 Tx 1 0616 s 8 000 000 000 000 000 045 001 000 
15:33:51:6262 Rx 1 0624 s 8 000 066 066 000 000 000 000 107 
15:33:52:0274 Rx 1 0624 s 8 000 066 066 000 000 000 000 107 
15:33:52:2292 Tx 1 0616 s 8 000 000 000 000 000 045 001 000 
15:33:52:4288 Rx 1 0624 s 8 000 066 066 000 000 000 000 107 
15:33:52:8302 Rx 1 0624 s 8 000 066 066 000 000 000 000 107 
15:33:53:0029 Tx 1 0616 s 8 000 000 000 000 000 045 001 000 
15:33:53:2316 Rx 1 0624 s 8 000 066 066 000 000 000 000 107 
15:33:53:6330 Rx 1 0624 s 8 000 066 066 000 000 000 000 107 
15:33:53:7854 Tx 1 0616 s 8 000 000 000 000 000 045 001 000 
15:33:54:0344 Rx 1 0624 s 8 000 066 066 000 000 000 000 107 
15:33:54:4359 Rx 1 0624 s 8 000 066 066 000 000 000 000 107 
15:33:54:5713 Tx 1 0616 s 8 000 000 000 000 000 045 001 000 
15:33:54:8372 Rx 1 0624 s 8 000 066 066 000 000 000 000 107 
15:33:55:2387 Rx 1 0624 s 8 000 066 066 000 000 000 000 107 
15:33:55:3744 Tx 1 0616 s 8 000 000 000 000 000 045 001 000 
15:33:55:6401 Rx 1 0624 s 8 000 066 066 000 000 000 000 107 
15:33:56:0415 Rx 1 0624 s 8 000 066 066 000 000 000 000 107 
15:33:56:1573 Tx 1 0616 s 8 000 000 000 000 000 045 001 000 
15:33:56:4429 Rx 1 0624 s 8 000 066 066 000 000 000 000 107 
15:33:56:8443 Rx 1 0624 s 8 000 066 066 000 000 000 000 107 
15:33:56:9162 Tx 1 0616 s 8 000 000 000 000 000 045 001 000 
15:33:57:2458 Rx 1 0624 s 8 000 066 066 000 000 000 000 107 
15:33:57:6472 Rx 1 0624 s 8 000 066 066 000 000 000 000 107 
15:33:57:7001 Tx 1 0616 s 8 000 000 000 000 000 045 001 000 
15:33:58:0486 Rx 1 0624 s 8 000 066 066 000 000 000 000 107 
15:33:58:4502 Rx 1 0624 s 8 000 066 066 000 000 000 000 107 
15:33:58:4923 Tx 1 0616 s 8 000 000 000 000 000 045 001 000 
15:33:58:8515 Rx 1 0624 s 8 000 066 066 000 000 000 000 107 
15:33:59:2528 Rx 1 0624 s 8 000 066 066 000 000 000 000 107 
15:33:59:2836 Tx 1 0616 s 8 000 000 000 000 000 045 001 000 
15:33:59:6542 Rx 1 0624 s 8 000 066 066 000 000 000 000 107 
15:34:00:0498 Tx 1 0616 s 8 000 000 000 000 000 045 001 000 
15:34:00:0556 Rx 1 0624 s 8 000 066 066 000 000 000 000 107 
15:34:00:4571 Rx 1 0624 s 8 000 066 066 000 000 000 000 107 
15:34:00:8159 Tx 1 0616 s 8 000 000 000 000 000 045 001 000 
15:34:00:8585 Rx 1 0624 s 8 000 066 066 000 000 000 000 107 
15:34:01:2599 Rx 1 0624 s 8 000 066 066 000 000 000 000 107 
15:34:01:5955 Tx 1 0616 s 8 000 000 000 000 000 045 001 000 
15:34:01:6613 Rx 1 0624 s 8 000 066 066 000 000 000 000 107 
15:34:02:0628 Rx 1 0624 s 8 000 066 066 000 000 000 000 107 
15:34:02:3796 Tx 1 0616 s 8 000 000 000 000 000 045 001 000 
15:34:02:4641 Rx 1 0624 s 8 000 066 066 000 000 000 000 107 
15:34:02:8656 Rx 1 0624 s 8 000 066 066 000 000 000 000 107 
15:34:03:1453 Tx 1 0616 s 8 000 000 000 000 000 045 001 000 
15:34:03:2670 Rx 1 0624 s 8 000 066 066 000 000 000 000 107 
15:34:03:6684 Rx 1 0624 s 8 000 066 066 000 000 000 000 107 
15:34:03:9336 Tx 1 0616 s 8 000 000 000 000 000 045 001 000 
15:34:04:0699 Rx 1 0624 s 8 000 066 066 000 000 000 000 107 
15:34:04:4712 Rx 1 0624 s 8 000 066 066 000 000 000 000 107 
15:34:04:6573 Tx 1 0616 s 8 000 000 000 000 000 045 001 000 
15:34:04:8728 Rx 1 0624 s 8 000 066 066 000 000 000 000 107 
15:34:05:2741 Rx 1 0624 s 8 000 066 066 000 000 000 000 107 
15:34:05:4258 Tx 1 0616 s 8 000 000 000 000 000 045 001 000 
15:34:05:6756 Rx 1 0624 s 8 000 066 066 000 000 000 000 107 
15:34:06:0769 Rx 1 0624 s 8 000 066 066 000 000 000 000 107 
15:34:06:2143 Tx 1 0616 s 8 000 000 000 000 000 045 001 000 
15:34:06:4785 Rx 1 0624 s 8 000 066 066 000 000 000 000 107 
15:34:06:8797 Rx 1 0624 s 8 000 066 066 000 000 000 000 107 
15:34:06:9922 Tx 1 0616 s 8 000 000 000 000 000 045 001 000 
15:34:07:0855 Tx 1 0616 s 8 000 000 000 000 000 045 001 000 
15:34:07:2811 Rx 1 0624 s 8 000 066 066 000 000 000 000 107 
15:34:07:6826 Rx 1 0624 s 8 000 066 066 000 000 000 000 107 
15:34:07:7658 Tx 1 0616 s 8 000 000 000 000 000 045 001 000 
15:34:08:0841 Rx 1 0624 s 8 000 066 066 000 000 000 000 107 
15:34:08:4854 Rx 1 0624 s 8 000 066 066 000 000 000 000 107 
15:34:08:5473 Tx 1 0616 s 8 000 000 000 000 000 045 001 000 
15:34:08:8868 Rx 1 0624 s 8 000 066 066 000 000 000 000 107 
15:34:09:2882 Rx 1 0624 s 8 000 066 066 000 000 000 000 107 
15:34:09:3150 Tx 1 0616 s 8 000 000 000 000 000 045 001 000 
15:34:09:4149 Tx 1 0616 s 8 000 000 000 000 000 045 001 000 
15:34:09:6896 Rx 1 0624 s 8 000 066 066 000 000 000 000 107 
15:34:10:0911 Rx 1 0624 s 8 000 066 066 000 000 000 000 107 
15:34:10:1055 Tx 1 0616 s 8 000 000 000 000 000 045 001 000 
15:34:10:4925 Rx 1 0624 s 8 000 066 066 000 000 000 000 107 
15:34:10:8718 Tx 1 0616 s 8 000 000 000 000 000 045 001 000 
15:34:10:8939 Rx 1 0624 s 8 000 066 066 000 000 000 000 107 
15:34:11:2953 Rx 1 0624 s 8 000 066 066 000 000 000 000 107 
15:34:11:6306 Tx 1 0616 s 8 000 000 000 000 000 045 001 000 
15:34:11:6969 Rx 1 0624 s 8 000 066 066 000 000 000 000 107 
15:34:12:0983 Rx 1 0624 s 8 000 066 066 000 000 000 000 107 
15:34:12:3914 Tx 1 0616 s 8 000 000 000 000 000 045 001 000 
15:34:12:4996 Rx 1 0624 s 8 000 066 066 000 000 000 000 107 
15:34:12:9010 Rx 1 0624 s 8 000 066 066 000 000 000 000 107 
15:34:13:1471 Tx 1 0616 s 8 000 000 000 000 000 045 001 000 
15:34:13:3025 Rx 1 0624 s 8 000 066 066 000 000 000 000 107 
15:34:13:7038 Rx 1 0624 s 8 000 066 066 000 000 000 000 107 
15:34:13:9144 Tx 1 0616 s 8 000 000 000 000 000 045 001 000 
15:34:14:1052 Rx 1 0624 s 8 000 066 066 000 000 000 000 107 
15:34:14:5066 Rx 1 0624 s 8 000 066 066 000 000 000 000 107 
15:34:14:6665 Tx 1 0616 s 8 000 000 000 000 000 045 001 000 
15:34:14:9081 Rx 1 0624 s 8 000 066 066 000 000 000 000 107 
15:34:15:3094 Rx 1 0624 s 8 000 066 066 000 000 000 000 107 
15:34:15:4459 Tx 1 0616 s 8 000 000 000 000 000 045 001 000 
15:34:15:7108 Rx 1 0624 s 8 000 066 066 000 000 000 000 107 
15:34:16:1123 Rx 1 0624 s 8 000 066 066 000 000 000 000 107 
15:34:16:2068 Tx 1 0616 s 8 000 000 000 000 000 045 001 000 
15:34:16:5138 Rx 1 0624 s 8 000 066 066 000 000 000 000 107 
15:34:16:9152 Rx 1 0624 s 8 000 066 066 000 000 000 000 107 
15:34:16:9831 Tx 1 0616 s 8 000 000 000 000 000 045 001 000 
15:34:17:3165 Rx 1 0624 s 8 000 066 066 000 000 000 000 107 
15:34:17:7180 Rx 1 0624 s 8 000 066 066 000 000 000 000 107 
15:34:17:7590 Tx 1 0616 s 8 000 000 000 000 000 045 001 000 
15:34:18:1194 Rx 1 0624 s 8 000 066 066 000 000 000 000 107 
15:34:18:5207 Rx 1 0624 s 8 000 066 066 000 000 000 000 107 
15:34:18:5314 Tx 1 0616 s 8 000 000 000 000 000 045 001 000 
15:34:18:9221 Rx 1 0624 s 8 000 066 066 000 000 000 000 107 
15:34:19:3117 Tx 1 0616 s 8 000 000 000 000 000 045 001 000 
15:34:19:3236 Rx 1 0624 s 8 000 066 066 000 000 000 000 107 
15:34:19:7250 Rx 1 0624 s 8 000 066 066 000 000 000 000 107 
15:34:20:1073 Tx 1 0616 s 8 000 000 000 000 000 045 001 000 
15:34:20:1264 Rx 1 0624 s 8 000 066 066 000 000 000 000 107 
15:34:20:5278 Rx 1 0624 s 8 000 066 066 000 000 000 000 107 
15:34:20:8818 Tx 1 0616 s 8 000 000 000 000 000 045 001 000 
15:34:20:9292 Rx 1 0624 s 8 000 066 066 000 000 000 000 107 
15:34:21:3307 Rx 1 0624 s 8 000 066 066 000 000 000 000 107 
15:34:21:6485 Tx 1 0616 s 8 000 000 000 000 000 045 001 000 
15:34:21:7323 Rx 1 0624 s 8 000 066 066 000 000 000 000 107 
15:34:22:1335 Rx 1 0624 s 8 000 066 066 000 000 000 000 107 
15:34:22:4365 Tx 1 0616 s 8 000 000 000 000 000 045 001 000 
15:34:22:5349 Rx 1 0624 s 8 000 066 066 000 000 000 000 107 
15:34:22:9363 Rx 1 0624 s 8 000 066 066 000 000 000 000 107 
15:34:23:2430 Tx 1 0616 s 8 000 000 000 000 000 045 001 000 
15:34:23:3377 Rx 1 0624 s 8 000 066 066 000 000 000 000 107 
15:34:23:7392 Rx 1 0624 s 8 000 066 066 000 000 000 000 107 
15:34:24:0369 Tx 1 0616 s 8 000 000 000 000 000 045 001 000 
15:34:24:1405 Rx 1 0624 s 8 000 066 066 000 000 000 000 107 
15:34:24:5420 Rx 1 0624 s 8 000 066 066 000 000 000 000 107 
15:34:24:8031 Tx 1 0616 s 8 000 000 000 000 000 045 001 000 
15:34:24:9435 Rx 1 0624 s 8 000 066 066 000 000 000 000 107 
15:34:25:3448 Rx 1 0624 s 8 000 066 066 000 000 000 000 107 
15:34:25:5659 Tx 1 0616 s 8 000 000 000 000 000 045 001 000 
15:34:25:7463 Rx 1 0624 s 8 000 066 066 000 000 000 000 107 
15:34:26:1476 Rx 1 0624 s 8 000 066 066 000 000 000 000 107 
15:34:26:3444 Tx 1 0616 s 8 000 000 000 000 000 045 001 000 
15:34:26:5491 Rx 1 0624 s 8 000 066 066 000 000 000 000 107 
15:34:26:9504 Rx 1 0624 s 8 000 066 066 000 000 000 000 107 
15:34:27:1229 Tx 1 0616 s 8 000 000 000 000 000 045 001 000 
15:34:27:3519 Rx 1 0624 s 8 000 066 066 000 000 000 000 107 
15:34:27:7533 Rx 1 0624 s 8 000 066 066 000 000 000 000 107 
15:34:27:9208 Tx 1 0616 s 8 000 000 000 000 000 045 001 000 
15:34:28:1547 Rx 1 0624 s 8 000 066 066 000 000 000 000 107 
15:34:28:5561 Rx 1 0624 s 8 000 066 066 000 000 000 000 107 
15:34:28:6989 Tx 1 0616 s 8 000 000 000 000 000 045 001 000 
15:34:28:9575 Rx 1 0624 s 8 000 066 066 000 000 000 000 107 
15:34:29:3589 Rx 1 0624 s 8 000 066 066 000 000 000 000 107 
15:34:29:4915 Tx 1 0616 s 8 000 000 000 000 000 045 001 000 
15:34:29:7603 Rx 1 0624 s 8 000 066 066 000 000 000 000 107 
15:34:30:1617 Rx 1 0624 s 8 000 066 066 000 000 000 000 107 
15:34:30:2879 Tx 1 0616 s 8 000 000 000 000 000 045 001 000 
15:34:30:5631 Rx 1 0624 s 8 000 066 066 000 000 000 000 107 
15:34:30:9645 Rx 1 0624 s 8 000 066 066 000 000 000 000 107 
15:34:31:0679 Tx 1 0616 s 8 000 000 000 000 000 045 001 000 
15:34:31:3660 Rx 1 0624 s 8 000 066 066 000 000 000 000 107 
15:34:31:7676 Rx 1 0624 s 8 000 066 066 000 000 000 000 107 
15:34:31:8322 Tx 1 0616 s 8 000 000 000 000 000 045 001 000 
15:34:32:1688 Rx 1 0624 s 8 000 066 066 000 000 000 000 107 
15:34:32:5702 Rx 1 0624 s 8 000 066 066 000 000 000 000 107 
15:34:32:6013 Tx 1 0616 s 8 000 000 000 000 000 045 001 000 
15:34:32:9718 Rx 1 0624 s 8 000 066 066 000 000 000 000 107 
15:34:33:3627 Tx 1 0616 s 8 000 000 000 000 000 045 001 000 
15:34:33:3730 Rx 1 0624 s 8 000 066 066 000 000 000 000 107 
15:34:33:7744 Rx 1 0624 s 8 000 066 066 000 000 000 000 107 
15:34:34:1665 Tx 1 0616 s 8 000 000 000 000 000 045 001 000 
15:34:34:1758 Rx 1 0624 s 8 000 066 066 000 000 000 000 107 
15:34:34:5772 Rx 1 0624 s 8 000 066 066 000 000 000 000 107 
15:34:34:9786 Rx 1 0624 s 8 000 066 066 000 000 000 000 107 
15:34:35:3801 Rx 1 0624 s 8 000 066 066 000 000 000 000 107 
15:34:35:7816 Rx 1 0624 s 8 000 066 066 000 000 000 000 107 
15:34:36:1829 Rx 1 0624 s 8 000 066 066 000 000 000 000 107 
15:34:36:5843 Rx 1 0624 s 8 000 066 066 000 000 000 000 107 
15:34:36:9857 Rx 1 0624 s 8 000 066 066 000 000 000 000 107 
15:34:37:3871 Rx 1 0624 s 8 000 066 066 000 000 000 000 107 
15:34:37:7885 Rx 1 0624 s 8 000 066 066 000 000 000 000 107 
15:34:38:1900 Rx 1 0624 s 8 000 066 066 000 000 000 000 107 
15:34:38:5914 Rx 1 0624 s 8 000 066 066 000 000 000 000 107 
15:34:38:9929 Rx 1 0624 s 8 000 066 066 000 000 000 000 107 
15:34:39:3942 Rx 1 0624 s 8 000 066 066 003 128 001 000 107 
15:34:39:7956 Rx 1 0624 s 8 000 066 066 003 128 001 000 107 
15:34:40:1971 Rx 1 0624 s 8 000 066 066 003 128 001 000 107 
15:34:40:5985 Rx 1 0624 s 8 000 066 066 003 128 001 000 107 
15:34:40:9999 Rx 1 0624 s 8 000 066 066 003 128 001 000 107 
15:34:41:4014 Rx 1 0624 s 8 000 066 066 003 128 001 000 107 
15:34:41:8029 Rx 1 0624 s 8 000 066 066 003 128 001 000 107 
15:34:42:2041 Rx 1 0624 s 8 000 066 066 003 128 001 000 107 
15:34:42:6055 Rx 1 0624 s 8 000 066 066 003 128 001 000 107 
15:34:43:0071 Rx 1 0624 s 8 000 066 066 003 128 001 000 107 
15:34:43:4083 Rx 1 0624 s 8 000 066 066 003 128 001 000 107 
15:34:43:8098 Rx 1 0624 s 8 000 066 066 003 128 001 000 107 
15:34:44:2112 Rx 1 0624 s 8 000 066 066 003 128 001 000 107 
15:34:44:6126 Rx 1 0624 s 8 000 066 066 003 128 001 000 107 
15:34:45:0140 Rx 1 0624 s 8 000 066 066 003 128 001 000 107 
15:34:45:4154 Rx 1 0624 s 8 000 066 066 003 128 001 000 107 
15:34:45:8170 Rx 1 0624 s 8 000 066 066 003 128 001 000 107 
15:34:46:2182 Rx 1 0624 s 8 000 066 066 003 128 001 000 107 
15:34:46:6196 Rx 1 0624 s 8 000 066 066 003 128 001 000 107 
15:34:47:0211 Rx 1 0624 s 8 000 066 066 003 128 001 000 107 
15:34:47:4225 Rx 1 0624 s 8 000 066 066 003 128 001 000 107 
15:34:47:8239 Rx 1 0624 s 8 000 066 066 003 128 001 000 107 
15:34:48:2255 Rx 1 0624 s 8 000 066 066 003 128 001 000 107 
15:34:48:6268 Rx 1 0624 s 8 000 066 066 003 128 001 000 107 
15:34:49:0282 Rx 1 0624 s 8 000 066 066 003 128 001 000 107 
15:34:49:4297 Rx 1 0624 s 8 000 066 066 003 128 001 000 107 
15:34:49:8310 Rx 1 0624 s 8 000 066 066 003 128 001 000 107 
15:34:50:2326 Rx 1 0624 s 8 000 066 066 003 128 001 000 107 
15:34:50:6339 Rx 1 0624 s 8 000 066 066 003 128 001 000 107 
15:34:51:0353 Rx 1 0624 s 8 000 066 066 003 128 001 000 107 
15:34:51:4367 Rx 1 0624 s 8 000 066 066 003 128 001 000 107 
15:34:51:8383 Rx 1 0624 s 8 000 066 066 003 128 001 000 107 
15:34:52:2395 Rx 1 0624 s 8 000 066 066 003 128 001 000 107 
15:34:52:6409 Rx 1 0624 s 8 000 066 066 003 128 001 000 107 
15:34:53:0423 Rx 1 0624 s 8 000 066 066 003 128 001 000 107 
15:34:53:4437 Rx 1 0624 s 8 000 066 066 003 128 001 000 107 
15:34:53:8451 Rx 1 0624 s 8 000 066 066 003 128 001 000 107 
15:34:54:2465 Rx 1 0624 s 8 000 066 066 003 128 001 000 107 
15:34:54:6480 Rx 1 0624 s 8 000 066 066 003 128 001 000 107 
15:34:55:0494 Rx 1 0624 s 8 000 066 066 003 128 001 000 107 
15:34:55:4510 Rx 1 0624 s 8 000 066 066 003 128 001 000 107 
15:34:55:8523 Rx 1 0624 s 8 000 066 066 003 128 001 000 107 
15:34:56:2536 Rx 1 0624 s 8 000 066 066 003 128 001 000 107 
15:34:56:6550 Rx 1 0624 s 8 000 066 066 003 128 001 000 107 
15:34:57:0565 Rx 1 0624 s 8 000 066 066 003 128 001 000 107 
15:34:57:4579 Rx 1 0624 s 8 000 066 066 003 128 001 000 107 
15:34:57:8593 Rx 1 0624 s 8 000 066 066 003 128 001 000 107 
15:34:58:2607 Rx 1 0624 s 8 000 066 066 003 128 001 000 107 
15:34:58:6621 Rx 1 0624 s 8 000 066 066 003 128 001 000 107 
15:34:59:0637 Rx 1 0624 s 8 000 066 066 003 128 001 000 107 
15:34:59:4650 Rx 1 0624 s 8 000 066 066 003 128 001 000 107 
15:34:59:8663 Rx 1 0624 s 8 000 066 066 003 128 001 000 107 
15:35:00:2678 Rx 1 0624 s 8 000 066 066 003 128 001 000 107 
15:35:00:6692 Rx 1 0624 s 8 000 066 066 003 128 001 000 107 
15:35:01:0706 Rx 1 0624 s 8 000 066 066 003 128 001 000 107 
15:35:01:2731 Tx 1 0616 s 8 000 000 000 000 050 045 001 000 
15:35:01:4720 Rx 1 0624 s 8 000 066 066 001 000 000 000 107 
15:35:01:8734 Rx 1 0624 s 8 000 066 066 001 000 000 000 107 
15:35:02:0641 Tx 1 0616 s 8 000 000 000 000 050 045 001 000 
15:35:02:2748 Rx 1 0624 s 8 039 066 066 001 000 000 046 107 
15:35:02:6763 Rx 1 0624 s 8 052 066 066 001 000 000 062 106 
15:35:02:8558 Tx 1 0616 s 8 000 000 000 000 050 045 001 000 
15:35:03:0776 Rx 1 0624 s 8 052 066 066 001 000 000 062 106 
15:35:03:4790 Rx 1 0624 s 8 064 066 066 001 000 000 076 106 
15:35:03:6441 Tx 1 0616 s 8 000 000 000 000 050 045 001 000 
15:35:03:8804 Rx 1 0624 s 8 073 066 066 001 000 000 085 106 
15:35:04:2819 Rx 1 0624 s 8 072 066 066 001 000 000 085 106 
15:35:04:4225 Tx 1 0616 s 8 000 000 000 000 050 045 001 000 
15:35:04:6833 Rx 1 0624 s 8 064 066 066 001 000 000 075 106 
15:35:05:0848 Rx 1 0624 s 8 064 066 066 001 000 000 075 106 
15:35:05:1927 Tx 1 0616 s 8 000 000 000 000 050 045 001 000 
15:35:05:4862 Rx 1 0624 s 8 055 066 066 001 000 000 065 106 
15:35:05:8875 Rx 1 0624 s 8 047 066 066 001 000 000 055 107 
15:35:05:9611 Tx 1 0616 s 8 000 000 000 000 050 045 001 000 
15:35:06:2891 Rx 1 0624 s 8 040 066 066 001 000 000 047 107 
15:35:06:6904 Rx 1 0624 s 8 036 066 066 001 000 000 042 107 
15:35:06:7392 Tx 1 0616 s 8 000 000 000 000 050 045 001 000 
15:35:07:0918 Rx 1 0624 s 8 036 066 066 001 000 000 042 107 
15:35:07:4932 Rx 1 0624 s 8 032 066 066 001 000 000 038 107 
15:35:07:5195 Tx 1 0616 s 8 000 000 000 000 050 045 001 000 
15:35:07:8947 Rx 1 0624 s 8 030 066 066 001 000 000 035 107 
15:35:08:2960 Rx 1 0624 s 8 051 066 066 001 000 000 060 106 
15:35:08:3212 Tx 1 0616 s 8 000 000 000 000 050 045 001 000 
15:35:08:6974 Rx 1 0624 s 8 078 066 066 001 000 000 092 106 
15:35:09:0988 Rx 1 0624 s 8 078 066 066 001 000 000 092 106 
15:35:09:1075 Tx 1 0616 s 8 000 000 000 000 050 045 001 000 
15:35:09:5004 Rx 1 0624 s 8 090 066 066 001 000 000 106 106 
15:35:09:8878 Tx 1 0616 s 8 000 000 000 000 050 045 001 000 
15:35:09:9016 Rx 1 0624 s 8 100 066 066 001 000 000 118 106 
15:35:10:3031 Rx 1 0624 s 8 102 066 066 001 000 000 120 106 
15:35:10:6824 Tx 1 0616 s 8 000 000 000 000 050 045 001 000 
15:35:10:7045 Rx 1 0624 s 8 093 066 066 001 000 000 109 106 
15:35:11:1061 Rx 1 0624 s 8 093 066 066 001 000 000 109 106 
15:35:11:4516 Tx 1 0616 s 8 000 000 000 000 050 045 001 000 
15:35:11:5073 Rx 1 0624 s 8 082 066 066 001 000 000 096 106 
15:35:11:9087 Rx 1 0624 s 8 072 066 066 001 000 000 085 106 
15:35:12:2334 Tx 1 0616 s 8 000 000 000 000 050 045 001 000 
15:35:12:3101 Rx 1 0624 s 8 064 066 066 001 000 000 076 106 
15:35:12:7116 Rx 1 0624 s 8 059 067 066 001 000 000 069 106 
15:35:13:0047 Tx 1 0616 s 8 000 000 000 000 050 045 001 000 
15:35:13:1130 Rx 1 0624 s 8 059 067 066 001 000 000 069 106 
15:35:13:5144 Rx 1 0624 s 8 055 067 066 001 000 000 065 106 
15:35:13:7783 Tx 1 0616 s 8 000 000 000 000 050 045 001 000 
15:35:13:9158 Rx 1 0624 s 8 053 067 066 001 000 000 062 106 
15:35:14:3172 Rx 1 0624 s 8 051 067 066 001 000 000 060 106 
15:35:14:5753 Tx 1 0616 s 8 000 000 000 000 050 045 001 000 
15:35:14:7187 Rx 1 0624 s 8 050 068 066 001 000 000 059 106 
15:35:15:1201 Rx 1 0624 s 8 050 068 066 001 000 000 059 106 
15:35:15:3721 Tx 1 0616 s 8 000 000 000 000 050 045 001 000 
15:35:15:5215 Rx 1 0624 s 8 049 068 066 001 000 000 058 106 
15:35:15:9229 Rx 1 0624 s 8 048 069 066 001 000 000 057 106 
15:35:16:1676 Tx 1 0616 s 8 000 000 000 000 050 045 001 000 
15:35:16:3243 Rx 1 0624 s 8 048 069 066 001 000 000 056 106 
15:35:16:7257 Rx 1 0624 s 8 047 069 066 001 000 000 056 106 
15:35:16:9597 Tx 1 0616 s 8 000 000 000 000 050 045 001 000 
15:35:17:1270 Rx 1 0624 s 8 047 070 066 001 000 000 056 106 
15:35:17:5285 Rx 1 0624 s 8 047 070 066 001 000 000 055 106 
15:35:17:7389 Tx 1 0616 s 8 000 000 000 000 050 045 001 000 
15:35:17:9299 Rx 1 0624 s 8 046 070 066 001 000 000 055 106 
15:35:18:3313 Rx 1 0624 s 8 046 070 066 001 000 000 055 106 
15:35:18:5469 Tx 1 0616 s 8 000 000 000 000 050 045 001 000 
15:35:18:7329 Rx 1 0624 s 8 046 071 066 001 000 000 054 106 
15:35:19:1342 Rx 1 0624 s 8 046 071 066 001 000 000 054 106 
15:35:19:3387 Tx 1 0616 s 8 000 000 000 000 050 045 001 000 
15:35:19:5356 Rx 1 0624 s 8 046 071 066 001 000 000 054 106 
15:35:19:9370 Rx 1 0624 s 8 046 072 066 001 000 000 054 106 
15:35:20:1513 Tx 1 0616 s 8 000 000 000 000 050 045 001 000 
15:35:20:3384 Rx 1 0624 s 8 046 072 066 001 000 000 054 106 
15:35:20:7398 Rx 1 0624 s 8 046 072 066 001 000 000 054 106 
15:35:20:9266 Tx 1 0616 s 8 000 000 000 000 050 045 001 000 
15:35:21:1412 Rx 1 0624 s 8 046 072 066 001 000 000 054 106 
15:35:21:5426 Rx 1 0624 s 8 046 072 066 001 000 000 054 106 
15:35:21:7189 Tx 1 0616 s 8 000 000 000 000 050 045 001 000 
15:35:21:9442 Rx 1 0624 s 8 045 073 066 001 000 000 053 106 
15:35:22:3455 Rx 1 0624 s 8 045 073 066 001 000 000 053 106 
15:35:22:5141 Tx 1 0616 s 8 000 000 000 000 050 045 001 000 
15:35:22:7469 Rx 1 0624 s 8 045 073 066 001 000 000 053 106 
15:35:23:1483 Rx 1 0624 s 8 045 073 066 001 000 000 053 106 
15:35:23:3064 Tx 1 0616 s 8 000 000 000 000 050 045 001 000 
15:35:23:5497 Rx 1 0624 s 8 045 073 066 001 000 000 053 106 
15:35:23:9511 Rx 1 0624 s 8 045 073 066 001 000 000 053 106 
15:35:24:1029 Tx 1 0616 s 8 000 000 000 000 050 045 001 000 
15:35:24:3525 Rx 1 0624 s 8 045 074 066 001 000 000 053 106 
15:35:24:7540 Rx 1 0624 s 8 045 074 066 001 000 000 053 106 
15:35:24:8783 Tx 1 0616 s 8 000 000 000 000 050 045 001 000 
15:35:25:1554 Rx 1 0624 s 8 045 074 066 001 000 000 053 106 
15:35:25:5568 Rx 1 0624 s 8 045 074 066 001 000 000 053 106 
15:35:25:6613 Tx 1 0616 s 8 000 000 000 000 050 045 001 000 
15:35:25:9582 Rx 1 0624 s 8 045 074 066 001 000 000 053 106 
15:35:26:3596 Rx 1 0624 s 8 045 074 066 001 000 000 053 106 
15:35:26:4561 Tx 1 0616 s 8 000 000 000 000 050 045 001 000 
15:35:26:7611 Rx 1 0624 s 8 045 074 066 001 000 000 053 106 
15:35:27:1625 Rx 1 0624 s 8 045 074 066 001 000 000 053 106 
15:35:27:2446 Tx 1 0616 s 8 000 000 000 000 050 045 001 000 
15:35:27:5639 Rx 1 0624 s 8 045 075 066 001 000 000 053 106 
15:35:27:9653 Rx 1 0624 s 8 045 075 066 001 000 000 053 106 
15:35:28:0329 Tx 1 0616 s 8 000 000 000 000 050 045 001 000 
15:35:28:3667 Rx 1 0624 s 8 045 075 066 001 000 000 053 106 
15:35:28:7683 Rx 1 0624 s 8 045 075 066 001 000 000 053 106 
15:35:28:8028 Tx 1 0616 s 8 000 000 000 000 050 045 001 000 
15:35:29:1695 Rx 1 0624 s 8 045 075 066 001 000 000 053 106 
15:35:29:5709 Rx 1 0624 s 8 045 075 066 001 000 000 053 106 
15:35:29:5917 Tx 1 0616 s 8 000 000 000 000 050 045 001 000 
15:35:29:9723 Rx 1 0624 s 8 045 075 066 001 000 000 053 106 
15:35:30:3738 Rx 1 0624 s 8 044 075 066 001 000 000 052 106 
15:35:30:3849 Tx 1 0616 s 8 000 000 000 000 050 045 001 000 
15:35:30:7752 Rx 1 0624 s 8 044 075 066 001 000 000 052 106 
15:35:31:1687 Tx 1 0616 s 8 000 000 000 000 050 045 001 000 
15:35:31:1766 Rx 1 0624 s 8 044 076 066 001 000 000 052 106 
15:35:31:5781 Rx 1 0624 s 8 044 076 066 001 000 000 052 106 
15:35:31:9592 Tx 1 0616 s 8 000 000 000 000 050 045 001 000 
15:35:31:9797 Rx 1 0624 s 8 044 076 066 001 000 000 052 106 
15:35:32:3808 Rx 1 0624 s 8 044 076 067 001 000 000 052 106 
15:35:32:7391 Tx 1 0616 s 8 000 000 000 000 050 045 001 000 
15:35:32:7823 Rx 1 0624 s 8 044 076 067 001 000 000 052 106 
15:35:33:1837 Rx 1 0624 s 8 044 076 067 001 000 000 052 106 
15:35:33:5248 Tx 1 0616 s 8 000 000 000 000 050 045 001 000 
15:35:33:5851 Rx 1 0624 s 8 044 076 067 001 000 000 052 106 
15:35:33:9865 Rx 1 0624 s 8 044 076 067 001 000 000 052 106 
15:35:34:3263 Tx 1 0616 s 8 000 000 000 000 050 045 001 000 
15:35:34:3879 Rx 1 0624 s 8 044 077 067 001 000 000 052 106 
15:35:34:7895 Rx 1 0624 s 8 044 077 067 001 000 000 052 106 
15:35:35:1344 Tx 1 0616 s 8 000 000 000 000 050 045 001 000 
15:35:35:1908 Rx 1 0624 s 8 044 077 067 001 000 000 052 106 
15:35:35:5922 Rx 1 0624 s 8 044 077 067 001 000 000 052 106 
15:35:35:9152 Tx 1 0616 s 8 000 000 000 000 050 045 001 000 
15:35:35:9936 Rx 1 0624 s 8 044 077 067 001 000 000 052 106 
15:35:36:3950 Rx 1 0624 s 8 044 077 067 001 000 000 052 106 
15:35:36:7183 Tx 1 0616 s 8 000 000 000 000 050 045 001 000 
15:35:36:7964 Rx 1 0624 s 8 044 077 067 001 000 000 052 106 
15:35:37:1978 Rx 1 0624 s 8 044 077 067 001 000 000 052 106 
15:35:37:4927 Tx 1 0616 s 8 000 000 000 000 050 045 001 000 
15:35:37:5992 Rx 1 0624 s 8 044 078 067 001 000 000 052 106 
15:35:38:0007 Rx 1 0624 s 8 044 078 067 001 000 000 052 106 
15:35:38:2959 Tx 1 0616 s 8 000 000 000 000 050 045 001 000 
15:35:38:4021 Rx 1 0624 s 8 044 078 067 001 000 000 052 106 
15:35:38:8036 Rx 1 0624 s 8 044 078 067 001 000 000 052 106 
15:35:39:0950 Tx 1 0616 s 8 000 000 000 000 050 045 001 000 
15:35:39:2049 Rx 1 0624 s 8 044 078 067 001 000 000 052 106 
15:35:39:6065 Rx 1 0624 s 8 044 078 067 001 000 000 052 106 
15:35:39:8664 Tx 1 0616 s 8 000 000 000 000 050 045 001 000 
15:35:40:0077 Rx 1 0624 s 8 044 078 067 001 000 000 052 106 
15:35:40:4093 Rx 1 0624 s 8 044 078 067 001 000 000 052 106 
15:35:40:6577 Tx 1 0616 s 8 000 000 000 000 050 045 001 000 
15:35:40:8105 Rx 1 0624 s 8 044 078 067 001 000 000 052 106 
15:35:41:2119 Rx 1 0624 s 8 044 078 067 001 000 000 052 106 
15:35:41:4732 Tx 1 0616 s 8 000 000 000 000 050 045 001 000 
15:35:41:6133 Rx 1 0624 s 8 044 078 067 001 000 000 052 106 
15:35:42:0147 Rx 1 0624 s 8 044 078 067 001 000 000 052 106 
15:35:42:2666 Tx 1 0616 s 8 000 000 000 000 050 045 001 000 
15:35:42:4163 Rx 1 0624 s 8 044 078 067 001 000 000 052 106 
15:35:42:8176 Rx 1 0624 s 8 044 078 067 001 000 000 052 106 
15:35:43:0387 Tx 1 0616 s 8 000 000 000 000 050 045 001 000 
15:35:43:2190 Rx 1 0624 s 8 044 078 067 001 000 000 052 106 
15:35:43:6204 Rx 1 0624 s 8 044 079 067 001 000 000 052 106 
15:35:43:8524 Tx 1 0616 s 8 000 000 000 000 050 045 001 000 
15:35:44:0219 Rx 1 0624 s 8 044 079 068 001 000 000 052 106 
15:35:44:4233 Rx 1 0624 s 8 044 079 068 001 000 000 052 106 
15:35:44:6356 Tx 1 0616 s 8 000 000 000 000 050 045 001 000 
15:35:44:8247 Rx 1 0624 s 8 044 079 068 001 000 000 052 106 
15:35:45:2261 Rx 1 0624 s 8 044 079 068 001 000 000 052 106 
15:35:45:4190 Tx 1 0616 s 8 000 000 000 000 050 045 001 000 
15:35:45:6275 Rx 1 0624 s 8 044 079 068 001 000 000 052 106 
15:35:46:0289 Rx 1 0624 s 8 044 079 068 001 000 000 052 106 
15:35:46:2244 Tx 1 0616 s 8 000 000 000 000 050 045 001 000 
15:35:46:4303 Rx 1 0624 s 8 044 079 068 001 000 000 052 106 
15:35:46:8317 Rx 1 0624 s 8 044 079 068 001 000 000 052 106 
15:35:47:0162 Tx 1 0616 s 8 000 000 000 000 050 045 001 000 
15:35:47:2331 Rx 1 0624 s 8 044 079 068 001 000 000 052 106 
15:35:47:6345 Rx 1 0624 s 8 044 079 068 001 000 000 052 106 
15:35:47:8347 Tx 1 0616 s 8 000 000 000 000 050 045 001 000 
15:35:48:0360 Rx 1 0624 s 8 044 079 068 001 000 000 052 106 
15:35:48:4375 Rx 1 0624 s 8 044 079 068 001 000 000 052 106 
15:35:48:6206 Tx 1 0616 s 8 000 000 000 000 050 045 001 000 
15:35:48:8388 Rx 1 0624 s 8 044 079 068 001 000 000 052 106 
15:35:49:2402 Rx 1 0624 s 8 044 080 068 001 000 000 052 106 
15:35:49:4032 Tx 1 0616 s 8 000 000 000 000 050 045 001 000 
15:35:49:6417 Rx 1 0624 s 8 044 080 068 001 000 000 052 106 
15:35:50:0431 Rx 1 0624 s 8 044 080 068 001 000 000 052 106 
15:35:50:1976 Tx 1 0616 s 8 000 000 000 000 050 045 001 000 
15:35:50:4446 Rx 1 0624 s 8 044 080 068 001 000 000 052 106 
15:35:50:8459 Rx 1 0624 s 8 044 080 068 001 000 000 052 106 
15:35:50:9915 Tx 1 0616 s 8 000 000 000 000 050 045 001 000 
15:35:51:2474 Rx 1 0624 s 8 044 080 068 001 000 000 052 106 
15:35:51:6488 Rx 1 0624 s 8 044 080 068 001 000 000 052 106 
15:35:51:7897 Tx 1 0616 s 8 000 000 000 000 050 045 001 000 
15:35:52:0505 Rx 1 0624 s 8 044 080 068 001 000 000 052 106 
15:35:52:4516 Rx 1 0624 s 8 044 080 068 001 000 000 052 106 
15:35:52:5780 Tx 1 0616 s 8 000 000 000 000 050 045 001 000 
15:35:52:8530 Rx 1 0624 s 8 044 080 069 001 000 000 052 106 
15:35:53:2546 Rx 1 0624 s 8 044 080 069 001 000 000 052 106 
15:35:53:3570 Tx 1 0616 s 8 000 000 000 000 050 045 001 000 
15:35:53:6558 Rx 1 0624 s 8 044 080 069 001 000 000 052 106 
15:35:54:0572 Rx 1 0624 s 8 044 080 069 001 000 000 052 106 
15:35:54:1761 Tx 1 0616 s 8 000 000 000 000 050 045 001 000 
15:35:54:4588 Rx 1 0624 s 8 044 080 069 001 000 000 052 106 
15:35:54:8600 Rx 1 0624 s 8 044 081 069 001 000 000 052 106 
15:35:54:9685 Tx 1 0616 s 8 000 000 000 000 050 045 001 000 
15:35:55:2616 Rx 1 0624 s 8 044 081 069 001 000 000 052 106 
15:35:55:6629 Rx 1 0624 s 8 044 081 069 001 000 000 052 106 
15:35:55:7886 Tx 1 0616 s 8 000 000 000 000 050 045 001 000 
15:35:56:0643 Rx 1 0624 s 8 044 081 069 001 000 000 052 106 
15:35:56:4659 Rx 1 0624 s 8 044 081 069 001 000 000 052 106 
15:35:56:5801 Tx 1 0616 s 8 000 000 000 000 050 045 001 000 
15:35:56:8671 Rx 1 0624 s 8 044 081 069 001 000 000 052 106 
15:35:57:2685 Rx 1 0624 s 8 044 081 069 001 000 000 052 106 
15:35:57:3651 Tx 1 0616 s 8 000 000 000 000 050 045 001 000 
15:35:57:6700 Rx 1 0624 s 8 044 081 069 001 000 000 052 106 
15:35:58:0713 Rx 1 0624 s 8 044 081 069 001 000 000 052 106 
15:35:58:1398 Tx 1 0616 s 8 000 000 000 000 050 045 001 000 
15:35:58:4727 Rx 1 0624 s 8 044 081 069 001 000 000 052 106 
15:35:58:8742 Rx 1 0624 s 8 044 081 069 001 000 000 052 106 
15:35:58:9207 Tx 1 0616 s 8 000 000 000 000 050 045 001 000 
15:35:59:2756 Rx 1 0624 s 8 044 081 069 001 000 000 052 106 
15:35:59:6770 Rx 1 0624 s 8 044 081 069 001 000 000 052 106 
15:35:59:7264 Tx 1 0616 s 8 000 000 000 000 050 045 001 000 
15:36:00:0784 Rx 1 0624 s 8 044 081 069 001 000 000 052 106 
15:36:00:4800 Rx 1 0624 s 8 044 081 069 001 000 000 052 106 
15:36:00:5184 Tx 1 0616 s 8 000 000 000 000 050 045 001 000 
15:36:00:8813 Rx 1 0624 s 8 044 081 069 001 000 000 052 106 
15:36:01:2827 Rx 1 0624 s 8 044 081 069 001 000 000 052 106 
15:36:01:3114 Tx 1 0616 s 8 000 000 000 000 050 045 001 000 
15:36:01:6841 Rx 1 0624 s 8 044 082 069 001 000 000 052 106 
15:36:02:0857 Rx 1 0624 s 8 044 082 069 001 000 000 052 106 
15:36:02:0891 Tx 1 0616 s 8 000 000 000 000 050 045 001 000 
15:36:02:4869 Rx 1 0624 s 8 044 082 069 001 000 000 052 106 
15:36:02:8729 Tx 1 0616 s 8 000 000 000 000 050 045 001 000 
15:36:02:8883 Rx 1 0624 s 8 044 082 069 001 000 000 052 106 
15:36:03:2898 Rx 1 0624 s 8 044 082 069 001 000 000 052 106 
15:36:03:6696 Tx 1 0616 s 8 000 000 000 000 050 045 001 000 
15:36:03:6912 Rx 1 0624 s 8 044 082 070 001 000 000 052 106 
15:36:04:0928 Rx 1 0624 s 8 044 082 070 001 000 000 052 106 
15:36:04:4582 Tx 1 0616 s 8 000 000 000 000 050 045 001 000 
15:36:04:4940 Rx 1 0624 s 8 044 082 070 001 000 000 052 106 
15:36:04:8955 Rx 1 0624 s 8 044 082 070 001 000 000 052 106 
15:36:05:2389 Tx 1 0616 s 8 000 000 000 000 050 045 001 000 
15:36:05:2968 Rx 1 0624 s 8 044 082 070 001 000 000 052 106 
15:36:05:6983 Rx 1 0624 s 8 044 082 070 001 000 000 052 106 
15:36:06:0203 Tx 1 0616 s 8 000 000 000 000 050 045 001 000 
15:36:06:0997 Rx 1 0624 s 8 043 082 070 001 000 000 051 106 
15:36:06:5011 Rx 1 0624 s 8 043 082 070 001 000 000 051 106 
15:36:06:8288 Tx 1 0616 s 8 000 000 000 000 050 045 001 000 
15:36:06:9027 Rx 1 0624 s 8 043 082 070 001 000 000 051 106 
15:36:07:3041 Rx 1 0624 s 8 043 082 070 001 000 000 051 106 
15:36:07:6333 Tx 1 0616 s 8 000 000 000 000 050 045 001 000 
15:36:07:7053 Rx 1 0624 s 8 043 082 070 001 000 000 051 106 
15:36:08:1068 Rx 1 0624 s 8 043 082 070 001 000 000 051 106 
15:36:08:4210 Tx 1 0616 s 8 000 000 000 000 050 045 001 000 
15:36:08:5083 Rx 1 0624 s 8 043 082 070 001 000 000 051 106 
15:36:08:9096 Rx 1 0624 s 8 043 082 070 001 000 000 051 106 
15:36:09:1799 Tx 1 0616 s 8 000 000 000 000 050 045 001 000 
15:36:09:3111 Rx 1 0624 s 8 043 083 070 001 000 000 051 106 
15:36:09:7124 Rx 1 0624 s 8 043 083 070 001 000 000 051 106 
15:36:09:9489 Tx 1 0616 s 8 000 000 000 000 050 045 001 000 
15:36:10:1139 Rx 1 0624 s 8 043 083 070 001 000 000 051 106 
15:36:10:5152 Rx 1 0624 s 8 043 083 070 001 000 000 051 106 
15:36:10:7347 Tx 1 0616 s 8 000 000 000 000 050 045 001 000 
15:36:10:9167 Rx 1 0624 s 8 043 083 070 001 000 000 051 106 
15:36:11:3181 Rx 1 0624 s 8 043 083 070 001 000 000 051 106 
15:36:11:5386 Tx 1 0616 s 8 000 000 000 000 050 045 001 000 
15:36:11:7195 Rx 1 0624 s 8 043 083 070 001 000 000 051 106 
15:36:12:1211 Rx 1 0624 s 8 043 083 070 001 000 000 051 106 
15:36:12:3162 Tx 1 0616 s 8 000 000 000 000 050 045 001 000 
15:36:12:5225 Rx 1 0624 s 8 043 083 070 001 000 000 051 106 
15:36:12:9237 Rx 1 0624 s 8 043 083 070 001 000 000 051 106 
15:36:13:1071 Tx 1 0616 s 8 000 000 000 000 050 045 001 000 
15:36:13:3251 Rx 1 0624 s 8 043 083 070 001 000 000 051 106 
15:36:13:7265 Rx 1 0624 s 8 043 083 070 001 000 000 051 106 
15:36:13:8803 Tx 1 0616 s 8 000 000 000 000 050 045 001 000 
15:36:14:1279 Rx 1 0624 s 8 043 083 070 001 000 000 051 106 
15:36:14:5293 Rx 1 0624 s 8 043 083 071 001 000 000 051 106 
15:36:14:6705 Tx 1 0616 s 8 000 000 000 000 050 045 001 000 
15:36:14:9308 Rx 1 0624 s 8 043 083 071 001 000 000 051 106 
15:36:15:3323 Rx 1 0624 s 8 043 083 071 001 000 000 051 106 
15:36:15:4740 Tx 1 0616 s 8 000 000 000 000 050 045 001 000 
15:36:15:7336 Rx 1 0624 s 8 043 083 071 001 000 000 051 106 
15:36:16:1350 Rx 1 0624 s 8 043 083 071 001 000 000 051 106 
15:36:16:3024 Tx 1 0616 s 8 000 000 000 000 050 045 001 000 
15:36:16:5364 Rx 1 0624 s 8 043 083 071 001 000 000 051 106 
15:36:16:9378 Rx 1 0624 s 8 043 083 071 001 000 000 051 106 
15:36:17:0942 Tx 1 0616 s 8 000 000 000 000 050 045 001 000 
15:36:17:3393 Rx 1 0624 s 8 043 083 071 001 000 000 051 106 
15:36:17:7407 Rx 1 0624 s 8 043 083 071 001 000 000 051 106 
15:36:17:8586 Tx 1 0616 s 8 000 000 000 000 050 045 001 000 
15:36:18:1421 Rx 1 0624 s 8 043 083 071 001 000 000 051 106 
15:36:18:5435 Rx 1 0624 s 8 043 083 071 001 000 000 051 106 
15:36:18:6599 Tx 1 0616 s 8 000 000 000 000 050 045 001 000 
15:36:18:9451 Rx 1 0624 s 8 043 084 071 001 000 000 051 106 
15:36:19:3464 Rx 1 0624 s 8 043 084 071 001 000 000 051 106 
15:36:19:4658 Tx 1 0616 s 8 000 000 000 000 050 045 001 000 
15:36:19:7478 Rx 1 0624 s 8 043 084 071 001 000 000 051 106 
15:36:20:1492 Rx 1 0624 s 8 043 084 071 001 000 000 051 106 
15:36:20:2798 Tx 1 0616 s 8 000 000 000 000 050 045 001 000 
15:36:20:5506 Rx 1 0624 s 8 043 084 071 001 000 000 051 106 
15:36:20:9521 Rx 1 0624 s 8 043 084 071 001 000 000 051 106 
15:36:21:0700 Tx 1 0616 s 8 000 000 000 000 050 045 001 000 
15:36:21:3534 Rx 1 0624 s 8 043 084 071 001 000 000 051 106 
15:36:21:7548 Rx 1 0624 s 8 043 084 071 001 000 000 051 106 
15:36:21:8568 Tx 1 0616 s 8 000 000 000 000 050 045 001 000 
15:36:22:1564 Rx 1 0624 s 8 043 084 071 001 000 000 051 106 
15:36:22:5576 Rx 1 0624 s 8 043 084 071 001 000 000 051 106 
15:36:22:6377 Tx 1 0616 s 8 000 000 000 000 050 045 001 000 
15:36:22:9590 Rx 1 0624 s 8 043 084 071 001 000 000 051 106 
15:36:23:3604 Rx 1 0624 s 8 043 084 071 001 000 000 051 106 
15:36:23:4237 Tx 1 0616 s 8 000 000 000 000 050 045 001 000 
15:36:23:7619 Rx 1 0624 s 8 043 084 071 001 000 000 051 106 
15:36:24:1633 Rx 1 0624 s 8 043 084 072 001 000 000 051 106 
15:36:24:2510 Tx 1 0616 s 8 000 000 000 000 050 045 001 000 
15:36:24:5649 Rx 1 0624 s 8 043 084 072 001 000 000 051 106 
15:36:24:9663 Rx 1 0624 s 8 043 084 072 001 000 000 051 106 
15:36:25:0186 Tx 1 0616 s 8 000 000 000 000 050 045 001 000 
15:36:25:3677 Rx 1 0624 s 8 043 084 072 001 000 000 051 106 
15:36:25:7690 Rx 1 0624 s 8 043 084 072 001 000 000 051 106 
15:36:25:7770 Tx 1 0616 s 8 000 000 000 000 050 045 001 000 
15:36:26:1704 Rx 1 0624 s 8 043 084 072 001 000 000 051 106 
15:36:26:5593 Tx 1 0616 s 8 000 000 000 000 050 045 001 000 
15:36:26:5718 Rx 1 0624 s 8 043 084 072 001 000 000 051 106 
15:36:26:9732 Rx 1 0624 s 8 043 084 072 001 000 000 051 106 
15:36:27:3527 Tx 1 0616 s 8 000 000 000 000 050 045 001 000 
15:36:27:3748 Rx 1 0624 s 8 043 084 072 001 000 000 051 106 
15:36:27:7760 Rx 1 0624 s 8 043 084 072 001 000 000 051 106 
15:36:28:1526 Tx 1 0616 s 8 000 000 000 000 050 045 001 000 
15:36:28:1774 Rx 1 0624 s 8 043 084 072 001 000 000 051 106 
15:36:28:5788 Rx 1 0624 s 8 043 084 072 001 000 000 051 106 
15:36:28:9519 Tx 1 0616 s 8 000 000 000 000 050 045 001 000 
15:36:28:9803 Rx 1 0624 s 8 043 084 072 001 000 000 051 106 
15:36:29:3817 Rx 1 0624 s 8 043 084 072 001 000 000 051 106 
15:36:29:7188 Tx 1 0616 s 8 000 000 000 000 050 045 001 000 
15:36:29:7831 Rx 1 0624 s 8 043 084 072 001 000 000 051 106 
15:36:30:1845 Rx 1 0624 s 8 043 084 072 001 000 000 051 106 
15:36:30:4791 Tx 1 0616 s 8 000 000 000 000 050 045 001 000 
15:36:30:5859 Rx 1 0624 s 8 043 084 072 001 000 000 051 106 
15:36:30:9873 Rx 1 0624 s 8 043 084 072 001 000 000 051 106 
15:36:31:2853 Tx 1 0616 s 8 000 000 000 000 050 045 001 000 
15:36:31:3889 Rx 1 0624 s 8 043 084 072 001 000 000 051 106 
15:36:31:7902 Rx 1 0624 s 8 043 084 072 001 000 000 051 106 
15:36:32:0821 Tx 1 0616 s 8 000 000 000 000 050 045 001 000 
15:36:32:1916 Rx 1 0624 s 8 043 084 072 001 000 000 051 106 
15:36:32:5930 Rx 1 0624 s 8 043 084 072 001 000 000 051 106 
15:36:32:8681 Tx 1 0616 s 8 000 000 000 000 050 045 001 000 
15:36:32:9944 Rx 1 0624 s 8 043 084 072 001 000 000 051 106 
15:36:33:3958 Rx 1 0624 s 8 043 084 072 001 000 000 051 106 
15:36:33:6467 Tx 1 0616 s 8 000 000 000 000 050 045 001 000 
15:36:33:7972 Rx 1 0624 s 8 043 084 072 001 000 000 051 106 
15:36:34:1986 Rx 1 0624 s 8 043 084 072 001 000 000 050 106 
15:36:34:4213 Tx 1 0616 s 8 000 000 000 000 050 045 001 000 
15:36:34:6001 Rx 1 0624 s 8 043 084 073 001 000 000 050 106 
15:36:35:0016 Rx 1 0624 s 8 043 084 073 001 000 000 050 106 
15:36:35:1844 Tx 1 0616 s 8 000 000 000 000 050 045 001 000 
15:36:35:4030 Rx 1 0624 s 8 043 084 073 001 000 000 050 106 
15:36:35:8043 Rx 1 0624 s 8 043 084 073 001 000 000 050 106 
15:36:35:9411 Tx 1 0616 s 8 000 000 000 000 050 045 001 000 
15:36:36:2058 Rx 1 0624 s 8 043 084 073 001 000 000 050 106 
15:36:36:6070 Rx 1 0624 s 8 043 084 073 001 000 000 050 106 
15:36:36:7365 Tx 1 0616 s 8 000 000 000 000 050 045 001 000 
15:36:37:0085 Rx 1 0624 s 8 043 084 073 001 000 000 050 106 
15:36:37:4099 Rx 1 0624 s 8 043 084 073 001 000 000 050 106 
15:36:37:5259 Tx 1 0616 s 8 000 000 000 000 050 045 001 000 
15:36:37:8114 Rx 1 0624 s 8 043 084 073 001 000 000 050 106 
15:36:38:2127 Rx 1 0624 s 8 043 085 073 001 000 000 050 106 
15:36:38:3147 Tx 1 0616 s 8 000 000 000 000 050 045 001 000 
15:36:38:6142 Rx 1 0624 s 8 043 085 073 001 000 000 050 106 
15:36:39:0156 Rx 1 0624 s 8 043 085 073 001 000 000 050 106 
15:36:39:1048 Tx 1 0616 s 8 000 000 000 000 050 045 001 000 
15:36:39:4170 Rx 1 0624 s 8 043 085 073 001 000 000 050 106 
15:36:39:8184 Rx 1 0624 s 8 043 085 073 001 000 000 050 106 
15:36:39:9061 Tx 1 0616 s 8 000 000 000 000 050 045 001 000 
15:36:40:2198 Rx 1 0624 s 8 043 085 073 001 000 000 050 106 
15:36:40:6212 Rx 1 0624 s 8 043 085 073 001 000 000 050 106 
15:36:40:6958 Tx 1 0616 s 8 000 000 000 000 050 045 001 000 
15:36:41:0226 Rx 1 0624 s 8 043 085 073 001 000 000 050 106 
15:36:41:4240 Rx 1 0624 s 8 043 085 073 001 000 000 050 106 
15:36:41:4823 Tx 1 0616 s 8 000 000 000 000 050 045 001 000 
15:36:41:8255 Rx 1 0624 s 8 043 085 073 001 000 000 050 106 
15:36:42:2272 Rx 1 0624 s 8 043 085 073 001 000 000 050 106 
15:36:42:2871 Tx 1 0616 s 8 000 000 000 000 050 045 001 000 
15:36:42:6283 Rx 1 0624 s 8 043 085 073 001 000 000 050 106 
15:36:43:0297 Rx 1 0624 s 8 043 085 073 001 000 000 050 106 
15:36:43:0574 Tx 1 0616 s 8 000 000 000 000 050 045 001 000 
15:36:43:4313 Rx 1 0624 s 8 043 085 073 001 000 000 050 106 
15:36:43:8327 Rx 1 0624 s 8 043 085 073 001 000 000 050 106 
15:36:43:8503 Tx 1 0616 s 8 000 000 000 000 050 045 001 000 
15:36:44:2339 Rx 1 0624 s 8 043 085 074 001 000 000 050 106 
15:36:44:6354 Rx 1 0624 s 8 043 085 074 001 000 000 050 106 
15:36:44:6452 Tx 1 0616 s 8 000 000 000 000 050 045 001 000 
15:36:45:0367 Rx 1 0624 s 8 043 085 074 001 000 000 050 106 
15:36:45:4383 Rx 1 0624 s 8 043 085 074 001 000 000 050 106 
15:36:45:4387 Tx 1 0616 s 8 000 000 000 000 050 045 001 000 
15:36:45:8396 Rx 1 0624 s 8 043 085 074 001 000 000 050 106 
15:36:46:2336 Tx 1 0616 s 8 000 000 000 000 050 045 001 000 
15:36:46:2410 Rx 1 0624 s 8 043 085 074 001 000 000 050 106 
15:36:46:6424 Rx 1 0624 s 8 043 085 074 001 000 000 050 106 
15:36:47:0224 Tx 1 0616 s 8 000 000 000 000 050 045 001 000 
15:36:47:0440 Rx 1 0624 s 8 043 085 074 001 000 000 050 106 
15:36:47:4453 Rx 1 0624 s 8 043 085 074 001 000 000 050 106 
15:36:47:8149 Tx 1 0616 s 8 000 000 000 000 050 045 001 000 
15:36:47:8467 Rx 1 0624 s 8 043 085 074 001 000 000 050 106 
15:36:48:2481 Rx 1 0624 s 8 043 085 074 001 000 000 050 106 
15:36:48:5862 Tx 1 0616 s 8 000 000 000 000 050 045 001 000 
15:36:48:6495 Rx 1 0624 s 8 043 085 074 001 000 000 050 106 
15:36:49:0510 Rx 1 0624 s 8 043 085 074 001 000 000 050 106 
15:36:49:3753 Tx 1 0616 s 8 000 000 000 000 050 045 001 000 
15:36:49:4523 Rx 1 0624 s 8 043 085 074 001 000 000 050 106 
15:36:49:8538 Rx 1 0624 s 8 043 085 074 001 000 000 050 106 
15:36:50:1647 Tx 1 0616 s 8 000 000 000 000 050 045 001 000 
15:36:50:2552 Rx 1 0624 s 8 043 086 074 001 000 000 050 106 
15:36:50:6566 Rx 1 0624 s 8 043 086 074 001 000 000 050 106 
15:36:50:9393 Tx 1 0616 s 8 000 000 000 000 050 045 001 000 
15:36:51:0580 Rx 1 0624 s 8 043 086 074 001 000 000 050 106 
15:36:51:4594 Rx 1 0624 s 8 043 086 074 001 000 000 050 106 
15:36:51:7094 Tx 1 0616 s 8 000 000 000 000 050 045 001 000 
15:36:51:8609 Rx 1 0624 s 8 043 086 074 001 000 000 050 106 
15:36:52:2625 Rx 1 0624 s 8 043 086 074 001 000 000 050 106 
15:36:52:4937 Tx 1 0616 s 8 000 000 000 000 050 045 001 000 
15:36:52:6637 Rx 1 0624 s 8 043 086 074 001 000 000 050 106 
15:36:53:0653 Rx 1 0624 s 8 043 086 074 001 000 000 050 106 
15:36:53:2697 Tx 1 0616 s 8 000 000 000 000 050 045 001 000 
15:36:53:4665 Rx 1 0624 s 8 043 086 074 001 000 000 050 106 
15:36:53:8679 Rx 1 0624 s 8 043 086 074 001 000 000 050 106 
15:36:54:0563 Tx 1 0616 s 8 000 000 000 000 050 045 001 000 
15:36:54:2695 Rx 1 0624 s 8 043 086 075 001 000 000 050 106 
15:36:54:6707 Rx 1 0624 s 8 043 086 075 001 000 000 050 106 
15:36:54:8324 Tx 1 0616 s 8 000 000 000 000 050 045 001 000 
15:36:55:0722 Rx 1 0624 s 8 043 086 075 001 000 000 050 106 
15:36:55:4736 Rx 1 0624 s 8 043 086 075 001 000 000 050 106 
15:36:55:6066 Tx 1 0616 s 8 000 000 000 000 050 045 001 000 
15:36:55:8750 Rx 1 0624 s 8 043 086 075 001 000 000 050 106 
15:36:56:2764 Rx 1 0624 s 8 043 086 075 001 000 000 050 106 
15:36:56:3876 Tx 1 0616 s 8 000 000 000 000 050 045 001 000 
15:36:56:6780 Rx 1 0624 s 8 040 086 075 001 000 000 047 106 
15:36:57:0793 Rx 1 0624 s 8 021 087 075 001 000 000 025 106 
15:36:57:1844 Tx 1 0616 s 8 000 000 000 000 050 045 001 000 
15:36:57:4807 Rx 1 0624 s 8 021 087 075 001 000 000 025 106 
15:36:57:8821 Rx 1 0624 s 8 021 087 075 001 000 000 025 106 
15:36:57:9840 Tx 1 0616 s 8 000 000 000 000 050 045 001 000 
15:36:58:2835 Rx 1 0624 s 8 021 087 075 001 000 000 025 106 
15:36:58:6849 Rx 1 0624 s 8 021 087 075 001 000 000 025 106 
15:36:58:7714 Tx 1 0616 s 8 000 000 000 000 050 045 001 000 
15:36:59:0864 Rx 1 0624 s 8 021 087 075 001 000 000 025 106 
15:36:59:4877 Rx 1 0624 s 8 021 087 075 001 000 000 025 106 
15:36:59:5325 Tx 1 0616 s 8 000 000 000 000 050 045 001 000 
15:36:59:8891 Rx 1 0624 s 8 020 087 075 001 000 000 024 106 
15:37:00:2905 Rx 1 0624 s 8 021 087 075 001 000 000 025 106 
15:37:00:3223 Tx 1 0616 s 8 000 000 000 000 050 045 001 000 
15:37:00:6920 Rx 1 0624 s 8 021 087 075 001 000 000 025 106 
15:37:01:0934 Rx 1 0624 s 8 021 087 075 001 000 000 025 106 
15:37:01:1223 Tx 1 0616 s 8 000 000 000 000 050 045 001 000 
15:37:01:4948 Rx 1 0624 s 8 021 087 075 001 000 000 025 106 
15:37:01:8962 Rx 1 0624 s 8 021 087 075 001 000 000 025 106 
15:37:01:8994 Tx 1 0616 s 8 000 000 000 000 050 045 001 000 
15:37:02:2976 Rx 1 0624 s 8 021 087 075 001 000 000 025 106 
15:37:02:6830 Tx 1 0616 s 8 000 000 000 000 050 045 001 000 
15:37:02:6990 Rx 1 0624 s 8 021 087 075 001 000 000 025 106 
15:37:03:1005 Rx 1 0624 s 8 021 087 075 001 000 000 025 106 
15:37:03:4660 Tx 1 0616 s 8 000 000 000 000 050 045 001 000 
15:37:03:5020 Rx 1 0624 s 8 021 087 075 001 000 000 025 106 
15:37:03:9032 Rx 1 0624 s 8 021 087 075 001 000 000 025 106 
15:37:04:2839 Tx 1 0616 s 8 000 000 000 000 050 045 001 000 
15:37:04:3047 Rx 1 0624 s 8 021 087 075 001 000 000 025 106 
15:37:04:7061 Rx 1 0624 s 8 021 086 075 001 000 000 025 106 
15:37:05:0606 Tx 1 0616 s 8 000 000 000 000 050 045 001 000 
15:37:05:1075 Rx 1 0624 s 8 021 086 076 001 000 000 025 106 
15:37:05:5089 Rx 1 0624 s 8 021 086 076 001 000 000 025 106 
15:37:05:8264 Tx 1 0616 s 8 000 000 000 000 050 045 001 000 
15:37:05:9104 Rx 1 0624 s 8 021 086 076 001 000 000 025 106 
15:37:06:3117 Rx 1 0624 s 8 021 086 076 001 000 000 025 106 
15:37:06:6019 Tx 1 0616 s 8 000 000 000 000 050 045 001 000 
15:37:06:7131 Rx 1 0624 s 8 021 086 076 001 000 000 025 106 
15:37:07:1145 Rx 1 0624 s 8 021 086 076 001 000 000 025 106 
15:37:07:3560 Tx 1 0616 s 8 000 000 000 000 050 045 001 000 
15:37:07:5160 Rx 1 0624 s 8 021 086 076 001 000 000 025 106 
15:37:07:9174 Rx 1 0624 s 8 021 085 076 001 000 000 025 106 
15:37:08:1193 Tx 1 0616 s 8 000 000 000 000 050 045 001 000 
15:37:08:3187 Rx 1 0624 s 8 021 085 076 001 000 000 025 106 
15:37:08:7201 Rx 1 0624 s 8 021 085 076 001 000 000 025 106 
15:37:08:9136 Tx 1 0616 s 8 000 000 000 000 050 045 001 000 
15:37:09:1216 Rx 1 0624 s 8 021 085 076 001 000 000 025 106 
15:37:09:5230 Rx 1 0624 s 8 021 085 076 001 000 000 025 106 
15:37:09:7119 Tx 1 0616 s 8 000 000 000 000 050 045 001 000 
15:37:09:9244 Rx 1 0624 s 8 021 085 076 001 000 000 025 106 
15:37:10:3258 Rx 1 0624 s 8 021 085 076 001 000 000 025 106 
15:37:10:5240 Tx 1 0616 s 8 000 000 000 000 050 045 001 000 
15:37:10:7273 Rx 1 0624 s 8 021 085 076 001 000 000 025 106 
15:37:11:1287 Rx 1 0624 s 8 021 084 076 001 000 000 025 106 
15:37:11:3150 Tx 1 0616 s 8 000 000 000 000 050 045 001 000 
15:37:11:5302 Rx 1 0624 s 8 021 084 076 001 000 000 025 106 
15:37:11:9315 Rx 1 0624 s 8 021 084 076 001 000 000 025 106 
15:37:12:1011 Tx 1 0616 s 8 000 000 000 000 050 045 001 000 
15:37:12:3329 Rx 1 0624 s 8 021 084 076 001 000 000 025 106 
15:37:12:7344 Rx 1 0624 s 8 021 084 076 001 000 000 025 106 
15:37:12:8830 Tx 1 0616 s 8 000 000 000 000 050 045 001 000 
15:37:13:1358 Rx 1 0624 s 8 021 084 076 001 000 000 025 106 
15:37:13:5372 Rx 1 0624 s 8 021 084 076 001 000 000 025 106 
15:37:13:6834 Tx 1 0616 s 8 000 000 000 000 050 045 001 000 
15:37:13:9386 Rx 1 0624 s 8 021 084 076 001 000 000 025 106 
15:37:14:3399 Rx 1 0624 s 8 021 084 076 001 000 000 025 106 
15:37:14:4507 Tx 1 0616 s 8 000 000 000 000 050 045 001 000 
15:37:14:7413 Rx 1 0624 s 8 021 084 076 001 000 000 025 106 
15:37:15:1428 Rx 1 0624 s 8 022 084 077 001 000 000 026 106 
15:37:15:2304 Tx 1 0616 s 8 000 000 000 000 050 045 001 000 
15:37:15:5442 Rx 1 0624 s 8 022 083 077 001 000 000 026 106 
15:37:15:9458 Rx 1 0624 s 8 022 083 077 001 000 000 026 106 
15:37:16:0094 Tx 1 0616 s 8 000 000 000 000 050 045 001 000 
15:37:16:3471 Rx 1 0624 s 8 022 083 077 001 000 000 026 106 
15:37:16:7485 Rx 1 0624 s 8 022 083 077 001 000 000 026 106 
15:37:16:8095 Tx 1 0616 s 8 000 000 000 000 050 045 001 000 
15:37:17:1499 Rx 1 0624 s 8 022 083 077 001 000 000 026 106 
15:37:17:5513 Rx 1 0624 s 8 022 083 077 001 000 000 026 106 
15:37:17:5792 Tx 1 0616 s 8 000 000 000 000 050 045 001 000 
15:37:17:9527 Rx 1 0624 s 8 022 083 077 001 000 000 026 106 
15:37:18:3541 Rx 1 0624 s 8 022 083 077 001 000 000 026 106 
15:37:18:3806 Tx 1 0616 s 8 000 000 000 000 050 045 001 000 
15:37:18:7555 Rx 1 0624 s 8 022 083 077 001 000 000 026 106 
15:37:19:1569 Rx 1 0624 s 8 022 083 077 001 000 000 026 106 
15:37:19:1915 Tx 1 0616 s 8 000 000 000 000 050 045 001 000 
15:37:19:5583 Rx 1 0624 s 8 022 083 077 001 000 000 026 106 
15:37:19:9597 Rx 1 0624 s 8 022 083 077 001 000 000 026 106 
15:37:19:9810 Tx 1 0616 s 8 000 000 000 000 050 045 001 000 
15:37:20:3613 Rx 1 0624 s 8 022 083 077 001 000 000 026 106 
15:37:20:7626 Rx 1 0624 s 8 022 083 077 001 000 000 026 106 
15:37:20:8085 Tx 1 0616 s 8 000 000 000 000 050 045 001 000 
15:37:21:1640 Rx 1 0624 s 8 022 083 077 001 000 000 026 106 
15:37:21:5654 Rx 1 0624 s 8 022 083 077 001 000 000 026 106 
15:37:21:6030 Tx 1 0616 s 8 000 000 000 000 050 045 001 000 
15:37:21:9668 Rx 1 0624 s 8 022 083 077 001 000 000 026 106 
15:37:22:3685 Rx 1 0624 s 8 022 083 077 001 000 000 026 106 
15:37:22:4175 Tx 1 0616 s 8 000 000 000 000 050 045 001 000 
15:37:22:7697 Rx 1 0624 s 8 022 082 077 001 000 000 026 106 
15:37:23:1712 Rx 1 0624 s 8 022 082 077 001 000 000 026 106 
15:37:23:2112 Tx 1 0616 s 8 000 000 000 000 050 045 001 000 
15:37:23:5725 Rx 1 0624 s 8 022 082 077 001 000 000 026 106 
15:37:23:9740 Rx 1 0624 s 8 022 082 077 001 000 000 026 106 
15:37:24:0054 Tx 1 0616 s 8 000 000 000 000 050 045 001 000 
15:37:24:3754 Rx 1 0624 s 8 022 082 077 001 000 000 026 106 
15:37:24:7768 Rx 1 0624 s 8 022 082 077 001 000 000 026 106 
15:37:24:8058 Tx 1 0616 s 8 000 000 000 000 050 045 001 000 
15:37:25:1782 Rx 1 0624 s 8 022 082 077 001 000 000 026 106 
15:37:25:5796 Rx 1 0624 s 8 022 082 077 001 000 000 026 106 
15:37:25:5910 Tx 1 0616 s 8 000 000 000 000 050 045 001 000 
15:37:25:9810 Rx 1 0624 s 8 022 082 077 001 000 000 026 106 
15:37:26:3676 Tx 1 0616 s 8 000 000 000 000 050 045 001 000 
15:37:26:3824 Rx 1 0624 s 8 022 082 077 001 000 000 026 106 
15:37:26:7839 Rx 1 0624 s 8 022 082 077 001 000 000 026 106 
15:37:27:1793 Tx 1 0616 s 8 000 000 000 000 050 045 001 000 
15:37:27:1853 Rx 1 0624 s 8 022 082 077 001 000 000 026 106 
15:37:27:5866 Rx 1 0624 s 8 022 082 077 001 000 000 026 106 
15:37:27:9739 Tx 1 0616 s 8 000 000 000 000 050 045 001 000 
15:37:27:9880 Rx 1 0624 s 8 022 082 077 001 000 000 026 106 
15:37:28:3894 Rx 1 0624 s 8 022 082 077 001 000 000 026 106 
15:37:28:7431 Tx 1 0616 s 8 000 000 000 000 050 045 001 000 
15:37:28:7908 Rx 1 0624 s 8 022 082 077 001 000 000 026 106 
15:37:29:1923 Rx 1 0624 s 8 022 082 077 001 000 000 026 106 
15:37:29:5257 Tx 1 0616 s 8 000 000 000 000 050 045 001 000 
15:37:29:5937 Rx 1 0624 s 8 022 082 077 001 000 000 026 106 
15:37:29:9952 Rx 1 0624 s 8 074 082 078 001 000 000 087 106 
15:37:30:3174 Tx 1 0616 s 8 000 000 000 000 050 045 001 000 
15:37:30:3967 Rx 1 0624 s 8 089 082 078 001 000 000 105 106 
15:37:30:7979 Rx 1 0624 s 8 097 082 078 001 000 000 115 106 
15:37:31:0869 Tx 1 0616 s 8 000 000 000 000 050 045 001 000 
15:37:31:1994 Rx 1 0624 s 8 095 082 078 001 000 000 113 106 
15:37:31:6008 Rx 1 0624 s 8 095 082 078 001 000 000 113 106 
15:37:31:8612 Tx 1 0616 s 8 000 000 000 000 050 045 001 000 
15:37:32:0023 Rx 1 0624 s 8 083 082 078 001 000 000 098 106 
15:37:32:4040 Rx 1 0624 s 8 070 082 078 001 000 000 083 106 
15:37:32:6494 Tx 1 0616 s 8 000 000 000 000 050 045 001 000 
15:37:32:8051 Rx 1 0624 s 8 061 082 078 001 000 000 072 106 
15:37:33:2065 Rx 1 0624 s 8 054 082 078 001 000 000 064 106 
15:37:33:4103 Tx 1 0616 s 8 000 000 000 000 050 045 001 000 
15:37:33:6079 Rx 1 0624 s 8 054 082 078 001 000 000 064 106 
15:37:34:0093 Rx 1 0624 s 8 051 082 078 001 000 000 060 106 
15:37:34:2182 Tx 1 0616 s 8 000 000 000 000 050 045 001 000 
15:37:34:4107 Rx 1 0624 s 8 048 083 078 001 000 000 057 106 
15:37:34:8122 Rx 1 0624 s 8 047 083 078 001 000 000 055 106 
15:37:34:9928 Tx 1 0616 s 8 000 000 000 000 050 045 001 000 
15:37:35:2135 Rx 1 0624 s 8 046 083 078 001 000 000 054 106 
15:37:35:6149 Rx 1 0624 s 8 046 083 078 001 000 000 054 106 
15:37:35:7920 Tx 1 0616 s 8 000 000 000 000 050 045 001 000 
15:37:36:0164 Rx 1 0624 s 8 045 083 078 001 000 000 053 106 
15:37:36:4178 Rx 1 0624 s 8 044 084 078 001 000 000 052 106 
15:37:36:6002 Tx 1 0616 s 8 000 000 000 000 050 045 001 000 
15:37:36:8192 Rx 1 0624 s 8 044 084 078 001 000 000 052 106 
15:37:37:2206 Rx 1 0624 s 8 044 084 078 001 000 000 052 106 
15:37:37:4086 Tx 1 0616 s 8 000 000 000 000 050 045 001 000 
15:37:37:6221 Rx 1 0624 s 8 044 085 078 001 000 000 052 106 
15:37:38:0234 Rx 1 0624 s 8 043 085 078 001 000 000 051 106 
15:37:38:2034 Tx 1 0616 s 8 000 000 000 000 050 045 001 000 
15:37:38:4250 Rx 1 0624 s 8 043 085 078 001 000 000 051 106 
15:37:38:8263 Rx 1 0624 s 8 043 085 078 001 000 000 051 106 
15:37:38:9884 Tx 1 0616 s 8 000 000 000 000 050 045 001 000 
15:37:39:2278 Rx 1 0624 s 8 043 086 078 001 000 000 050 106 
15:37:39:6291 Rx 1 0624 s 8 043 086 078 001 000 000 050 106 
15:37:39:7579 Tx 1 0616 s 8 000 000 000 000 050 045 001 000 
15:37:40:0305 Rx 1 0624 s 8 043 086 078 001 000 000 050 106 
15:37:40:4320 Rx 1 0624 s 8 043 087 078 001 000 000 050 106 
15:37:40:5712 Tx 1 0616 s 8 000 000 000 000 050 045 001 000 
15:37:40:8333 Rx 1 0624 s 8 043 087 078 001 000 000 050 106 
15:37:41:2347 Rx 1 0624 s 8 043 087 078 001 000 000 050 106 
15:37:41:3819 Tx 1 0616 s 8 000 000 000 000 050 045 001 000 
15:37:41:6361 Rx 1 0624 s 8 043 087 078 001 000 000 050 106 
15:37:42:0376 Rx 1 0624 s 8 043 087 078 001 000 000 050 106 
15:37:42:1641 Tx 1 0616 s 8 000 000 000 000 050 045 001 000 
15:37:42:4390 Rx 1 0624 s 8 042 088 078 001 000 000 050 106 
15:37:42:8404 Rx 1 0624 s 8 042 088 078 001 000 000 050 106 
15:37:42:9369 Tx 1 0616 s 8 000 000 000 000 050 045 001 000 
15:37:43:2418 Rx 1 0624 s 8 042 088 078 001 000 000 050 106 
15:37:43:6432 Rx 1 0624 s 8 042 088 078 001 000 000 050 106 
15:37:43:7251 Tx 1 0616 s 8 000 000 000 000 050 045 001 000 
15:37:44:0447 Rx 1 0624 s 8 042 089 078 001 000 000 050 106 
15:37:44:4461 Rx 1 0624 s 8 042 089 078 001 000 000 050 106 
15:37:44:4884 Tx 1 0616 s 8 000 000 000 000 050 045 001 000 
15:37:44:8476 Rx 1 0624 s 8 042 089 078 001 000 000 050 106 
15:37:45:2489 Rx 1 0624 s 8 042 089 078 001 000 000 050 106 
15:37:45:2786 Tx 1 0616 s 8 000 000 000 000 050 045 001 000 
15:37:45:6503 Rx 1 0624 s 8 042 089 079 001 000 000 050 106 
15:37:46:0517 Rx 1 0624 s 8 042 089 079 001 000 000 049 106 
15:37:46:0577 Tx 1 0616 s 8 000 000 000 000 050 045 001 000 
15:37:46:4531 Rx 1 0624 s 8 042 089 079 001 000 000 049 106 
15:37:46:8497 Tx 1 0616 s 8 000 000 000 000 050 045 001 000 
15:37:46:8546 Rx 1 0624 s 8 042 090 079 001 000 000 049 106 
15:37:47:2559 Rx 1 0624 s 8 042 090 079 001 000 000 049 106 
15:37:47:6173 Tx 1 0616 s 8 000 000 000 000 050 045 001 000 
15:37:47:6573 Rx 1 0624 s 8 042 090 079 001 000 000 049 106 
15:37:48:0588 Rx 1 0624 s 8 042 090 079 001 000 000 049 106 
15:37:48:4243 Tx 1 0616 s 8 000 000 000 000 050 045 001 000 
15:37:48:4602 Rx 1 0624 s 8 042 090 079 001 000 000 049 106 
15:37:48:8616 Rx 1 0624 s 8 042 090 079 001 000 000 049 106 
15:37:49:1869 Tx 1 0616 s 8 000 000 000 000 050 045 001 000 
15:37:49:2631 Rx 1 0624 s 8 042 090 079 001 000 000 049 106 
15:37:49:6644 Rx 1 0624 s 8 042 090 079 001 000 000 049 106 
15:37:49:9656 Tx 1 0616 s 8 000 000 000 000 050 045 001 000 
15:37:50:0658 Rx 1 0624 s 8 042 090 079 001 000 000 049 106 
15:37:50:4672 Rx 1 0624 s 8 000 091 079 000 000 000 000 106 
15:37:50:7560 Tx 1 0616 s 8 000 000 000 000 050 045 001 000 
15:37:50:8686 Rx 1 0624 s 8 000 091 079 000 000 000 000 106 
15:37:51:2701 Rx 1 0624 s 8 000 091 079 000 000 000 000 106 
15:37:51:5288 Tx 1 0616 s 8 000 000 000 000 050 045 001 000 
15:37:51:6715 Rx 1 0624 s 8 000 091 079 000 000 000 000 106 
15:37:52:0729 Rx 1 0624 s 8 000 091 079 000 000 000 000 106 
15:37:52:2993 Tx 1 0616 s 8 000 000 000 000 050 045 001 000 
15:37:52:4744 Rx 1 0624 s 8 000 091 079 000 000 000 000 106 
15:37:52:8759 Rx 1 0624 s 8 000 091 079 000 000 000 000 106 
15:37:53:1107 Tx 1 0616 s 8 000 000 000 000 050 045 001 000 
15:37:53:2772 Rx 1 0624 s 8 000 091 079 000 000 000 000 106 
15:37:53:6786 Rx 1 0624 s 8 000 091 079 000 000 000 000 106 
15:37:53:8988 Tx 1 0616 s 8 000 000 000 000 050 045 001 000 
15:37:54:0801 Rx 1 0624 s 8 000 091 079 000 000 000 000 106 
15:37:54:4814 Rx 1 0624 s 8 000 091 079 000 000 000 000 106 
15:37:54:6927 Tx 1 0616 s 8 000 000 000 000 050 045 001 000 
15:37:54:8828 Rx 1 0624 s 8 000 091 079 000 000 000 000 106 
15:37:55:2842 Rx 1 0624 s 8 000 091 079 000 000 000 000 106 
15:37:55:4801 Tx 1 0616 s 8 000 000 000 000 050 045 001 000 
15:37:55:6857 Rx 1 0624 s 8 000 091 079 000 000 000 000 106 
15:37:56:0871 Rx 1 0624 s 8 000 091 079 000 000 000 000 106 
15:37:56:2684 Tx 1 0616 s 8 000 000 000 000 050 045 001 000 
15:37:56:4885 Rx 1 0624 s 8 000 091 079 000 000 000 000 106 
15:37:56:8899 Rx 1 0624 s 8 000 091 079 000 000 000 000 106 
15:37:57:0616 Tx 1 0616 s 8 000 000 000 000 050 045 001 000 
15:37:57:2915 Rx 1 0624 s 8 000 091 079 000 000 000 000 106 
15:37:57:6927 Rx 1 0624 s 8 000 091 079 000 000 000 000 106 
15:37:57:8530 Tx 1 0616 s 8 000 000 000 000 050 045 001 000 
15:37:58:0942 Rx 1 0624 s 8 000 091 079 000 000 000 000 106 
15:37:58:4956 Rx 1 0624 s 8 000 091 080 000 000 000 000 106 
15:37:58:6618 Tx 1 0616 s 8 000 000 000 000 050 045 001 000 
15:37:58:8970 Rx 1 0624 s 8 000 091 080 000 000 000 000 106 
15:37:59:2987 Rx 1 0624 s 8 000 091 080 000 000 000 000 106 
15:37:59:4713 Tx 1 0616 s 8 000 000 000 000 050 045 001 000 
15:37:59:6997 Rx 1 0624 s 8 000 091 080 000 000 000 000 106 
15:38:00:1012 Rx 1 0624 s 8 000 090 080 000 000 000 000 106 
15:38:00:2458 Tx 1 0616 s 8 000 000 000 000 050 045 001 000 
15:38:00:5026 Rx 1 0624 s 8 000 090 080 000 000 000 000 106 
15:38:00:9040 Rx 1 0624 s 8 000 090 080 000 000 000 000 106 
15:38:01:0234 Tx 1 0616 s 8 000 000 000 000 050 045 001 000 
15:38:01:3055 Rx 1 0624 s 8 000 090 080 000 000 000 000 106 
15:38:01:7069 Rx 1 0624 s 8 000 090 080 000 000 000 000 106 
15:38:01:8258 Tx 1 0616 s 8 000 000 000 000 050 045 001 000 
15:38:02:1083 Rx 1 0624 s 8 000 090 080 000 000 000 000 106 
15:38:02:5097 Rx 1 0624 s 8 000 090 080 000 000 000 000 106 
15:38:02:6140 Tx 1 0616 s 8 000 000 000 000 050 045 001 000 
15:38:02:9111 Rx 1 0624 s 8 000 089 080 000 000 000 000 106 
15:38:03:3126 Rx 1 0624 s 8 000 089 080 000 000 000 000 106 
15:38:03:3865 Tx 1 0616 s 8 000 000 000 000 050 045 001 000 
15:38:03:7140 Rx 1 0624 s 8 000 089 080 000 000 000 000 106 
15:38:04:1154 Rx 1 0624 s 8 000 089 080 000 000 000 000 106 
15:38:04:1932 Tx 1 0616 s 8 000 000 000 000 050 045 001 000 
15:38:04:5168 Rx 1 0624 s 8 000 089 080 000 000 000 000 106 
15:38:04:9182 Rx 1 0624 s 8 000 089 080 000 000 000 000 106 
15:38:04:9876 Tx 1 0616 s 8 000 000 000 000 050 045 001 000 
15:38:05:3196 Rx 1 0624 s 8 000 088 080 000 000 000 000 106 
15:38:05:7210 Rx 1 0624 s 8 000 088 080 000 000 000 000 106 
15:38:05:7838 Tx 1 0616 s 8 000 000 000 000 050 045 001 000 
15:38:06:1225 Rx 1 0624 s 8 000 088 080 000 000 000 000 106 
15:38:06:5238 Rx 1 0624 s 8 000 088 080 000 000 000 000 106 
15:38:06:5669 Tx 1 0616 s 8 000 000 000 000 050 045 001 000 
15:38:06:9252 Rx 1 0624 s 8 000 088 080 000 000 000 000 106 
15:38:07:3267 Rx 1 0624 s 8 000 088 080 000 000 000 000 106 
15:38:07:3348 Tx 1 0616 s 8 000 000 000 000 050 045 001 000 
15:38:07:7281 Rx 1 0624 s 8 000 087 080 000 000 000 000 106 
15:38:08:1295 Rx 1 0624 s 8 000 087 080 000 000 000 000 106 
15:38:08:1415 Tx 1 0616 s 8 000 000 000 000 050 045 001 000 
15:38:08:5309 Rx 1 0624 s 8 000 087 080 000 000 000 000 106 
15:38:08:9055 Tx 1 0616 s 8 000 000 000 000 050 045 001 000 
15:38:08:9325 Rx 1 0624 s 8 000 087 080 000 000 000 000 106 
15:38:09:3337 Rx 1 0624 s 8 000 087 080 000 000 000 000 106 
15:38:09:6925 Tx 1 0616 s 8 000 000 000 000 050 045 001 000 
15:38:09:7354 Rx 1 0624 s 8 000 087 080 000 000 000 000 106 
15:38:10:1366 Rx 1 0624 s 8 000 087 080 000 000 000 000 106 
15:38:10:5086 Tx 1 0616 s 8 000 000 000 000 050 045 001 000 
15:38:10:5380 Rx 1 0624 s 8 000 087 080 000 000 000 000 106 
15:38:10:9394 Rx 1 0624 s 8 000 087 081 000 000 000 000 106 
15:38:11:2998 Tx 1 0616 s 8 000 000 000 000 050 045 001 000 
15:38:11:3408 Rx 1 0624 s 8 000 086 081 000 000 000 000 106 
15:38:11:7422 Rx 1 0624 s 8 000 086 081 000 000 000 000 106 
15:38:12:1017 Tx 1 0616 s 8 000 000 000 000 050 045 001 000 
15:38:12:1437 Rx 1 0624 s 8 000 086 081 000 000 000 000 106 
15:38:12:5450 Rx 1 0624 s 8 000 086 081 000 000 000 000 106 
15:38:12:9015 Tx 1 0616 s 8 000 000 000 000 050 045 001 000 
15:38:12:9466 Rx 1 0624 s 8 000 086 081 000 000 000 000 106 
15:38:13:3479 Rx 1 0624 s 8 000 086 081 000 000 000 000 106 
15:38:13:6857 Tx 1 0616 s 8 000 000 000 000 050 045 001 000 
15:38:13:7493 Rx 1 0624 s 8 000 086 081 000 000 000 000 106 
15:38:14:1507 Rx 1 0624 s 8 000 086 081 000 000 000 000 106 
15:38:14:4816 Tx 1 0616 s 8 000 000 000 000 050 045 001 000 
15:38:14:5521 Rx 1 0624 s 8 000 085 081 000 000 000 000 106 
15:38:14:9535 Rx 1 0624 s 8 000 085 081 000 000 000 000 106 
15:38:15:2259 Tx 1 0616 s 8 000 000 000 000 050 045 001 000 
15:38:15:3549 Rx 1 0624 s 8 000 085 081 000 000 000 000 106 
15:38:15:7564 Rx 1 0624 s 8 000 085 081 000 000 000 000 106 
15:38:16:0066 Tx 1 0616 s 8 000 000 000 000 050 045 001 000 
15:38:16:1579 Rx 1 0624 s 8 000 085 081 000 000 000 000 106 
15:38:16:5592 Rx 1 0624 s 8 000 085 081 000 000 000 000 106 
15:38:16:7885 Tx 1 0616 s 8 000 000 000 000 050 045 001 000 
15:38:16:9606 Rx 1 0624 s 8 000 085 081 000 000 000 000 106 
15:38:17:3621 Rx 1 0624 s 8 000 085 081 000 000 000 000 106 
15:38:17:5683 Tx 1 0616 s 8 000 000 000 000 050 045 001 000 
15:38:17:7634 Rx 1 0624 s 8 000 085 081 000 000 000 000 106 
15:38:18:1649 Rx 1 0624 s 8 000 085 081 000 000 000 000 106 
15:38:18:3586 Tx 1 0616 s 8 000 000 000 000 050 045 001 000 
15:38:18:5663 Rx 1 0624 s 8 000 085 081 000 000 000 000 106 
15:38:18:9678 Rx 1 0624 s 8 000 085 081 000 000 000 000 106 
15:38:19:1546 Tx 1 0616 s 8 000 000 000 000 050 045 001 000 
15:38:19:3691 Rx 1 0624 s 8 000 085 081 000 000 000 000 106 
15:38:19:7707 Rx 1 0624 s 8 000 084 081 000 000 000 000 106 
15:38:19:9398 Tx 1 0616 s 8 000 000 000 000 050 045 001 000 
15:38:20:1720 Rx 1 0624 s 8 000 084 081 000 000 000 000 106 
15:38:20:5734 Rx 1 0624 s 8 000 084 081 000 000 000 000 106 
15:38:20:7288 Tx 1 0616 s 8 000 000 000 000 050 045 001 000 
15:38:20:9748 Rx 1 0624 s 8 000 084 081 000 000 000 000 106 
15:38:21:3762 Rx 1 0624 s 8 000 084 081 000 000 000 000 106 
15:38:21:5301 Tx 1 0616 s 8 000 000 000 000 050 045 001 000 
15:38:21:7777 Rx 1 0624 s 8 000 084 081 000 000 000 000 106 
15:38:22:1791 Rx 1 0624 s 8 000 084 081 000 000 000 000 106 
15:38:22:3297 Tx 1 0616 s 8 000 000 000 000 050 045 001 000 
15:38:22:5804 Rx 1 0624 s 8 000 084 081 000 000 000 000 106 
15:38:22:9818 Rx 1 0624 s 8 000 084 081 000 000 000 000 106 
15:38:23:1060 Tx 1 0616 s 8 000 000 000 000 050 045 001 000 
15:38:23:3832 Rx 1 0624 s 8 000 084 081 000 000 000 000 106 
15:38:23:7846 Rx 1 0624 s 8 000 084 081 000 000 000 000 106 
15:38:23:9145 Tx 1 0616 s 8 000 000 000 000 050 045 001 000 
15:38:24:1862 Rx 1 0624 s 8 000 084 081 000 000 000 000 106 
15:38:24:5875 Rx 1 0624 s 8 000 084 081 000 000 000 000 106 
15:38:24:6990 Tx 1 0616 s 8 000 000 000 000 050 045 001 000 
15:38:24:9889 Rx 1 0624 s 8 000 084 081 000 000 000 000 106 
15:38:25:3903 Rx 1 0624 s 8 000 084 081 000 000 000 000 106 
15:38:25:4806 Tx 1 0616 s 8 000 000 000 000 050 045 001 000 
15:38:25:7917 Rx 1 0624 s 8 000 084 081 000 000 000 000 106 
15:38:26:1931 Rx 1 0624 s 8 000 084 081 000 000 000 000 106 
15:38:26:2729 Tx 1 0616 s 8 000 000 000 000 050 045 001 000 
15:38:26:5947 Rx 1 0624 s 8 000 084 081 000 000 000 000 106 
15:38:26:9960 Rx 1 0624 s 8 000 084 081 000 000 000 000 106 
15:38:27:0521 Tx 1 0616 s 8 000 000 000 000 050 045 001 000 
15:38:27:3974 Rx 1 0624 s 8 000 084 081 000 000 000 000 106 
15:38:27:7988 Rx 1 0624 s 8 000 084 081 000 000 000 000 106 
15:38:27:8412 Tx 1 0616 s 8 000 000 000 000 050 045 001 000 
15:38:28:2003 Rx 1 0624 s 8 000 084 081 000 000 000 000 106 
15:38:28:6019 Rx 1 0624 s 8 000 084 081 000 000 000 000 106 
15:38:28:6351 Tx 1 0616 s 8 000 000 000 000 050 045 001 000 
15:38:29:0031 Rx 1 0624 s 8 000 083 081 000 000 000 000 106 
15:38:29:4044 Rx 1 0624 s 8 000 083 081 000 000 000 000 106 
15:38:29:4293 Tx 1 0616 s 8 000 000 000 000 050 045 001 000 
15:38:29:8059 Rx 1 0624 s 8 000 083 081 000 000 000 000 106 
15:38:30:2073 Rx 1 0624 s 8 000 083 081 000 000 000 000 106 
15:38:30:2367 Tx 1 0616 s 8 000 000 000 000 050 045 001 000 
15:38:30:6087 Rx 1 0624 s 8 000 083 081 000 000 000 000 106 
15:38:31:0101 Rx 1 0624 s 8 000 083 081 000 000 000 000 106 
15:38:31:0288 Tx 1 0616 s 8 000 000 000 000 050 045 001 000 
15:38:31:4115 Rx 1 0624 s 8 000 083 081 000 000 000 000 106 
15:38:31:8129 Rx 1 0624 s 8 000 083 081 000 000 000 000 106 
15:38:31:8187 Tx 1 0616 s 8 000 000 000 000 050 045 001 000 
15:38:32:2145 Rx 1 0624 s 8 000 083 081 000 000 000 000 106 
15:38:32:6158 Rx 1 0624 s 8 000 083 081 000 000 000 000 106 
15:38:32:6365 Tx 1 0616 s 8 000 000 000 000 050 045 001 000 
15:38:33:0172 Rx 1 0624 s 8 000 083 081 000 000 000 000 106 
15:38:33:4139 Tx 1 0616 s 8 000 000 000 000 050 045 001 000 
15:38:33:4186 Rx 1 0624 s 8 000 083 081 000 000 000 000 106 
15:38:33:8200 Rx 1 0624 s 8 000 083 081 000 000 000 000 106 
15:38:34:1936 Tx 1 0616 s 8 000 000 000 000 050 045 001 000 
15:38:34:2214 Rx 1 0624 s 8 000 083 081 000 000 000 000 106 
15:38:34:6229 Rx 1 0624 s 8 000 083 081 000 000 000 000 106 
15:38:34:9900 Tx 1 0616 s 8 000 000 000 000 050 045 001 000 
15:38:35:0243 Rx 1 0624 s 8 000 083 081 000 000 000 000 106 
15:38:35:4257 Rx 1 0624 s 8 000 083 081 000 000 000 000 106 
15:38:35:7711 Tx 1 0616 s 8 000 000 000 000 050 045 001 000 
15:38:35:8272 Rx 1 0624 s 8 000 083 081 000 000 000 000 106 
15:38:36:2285 Rx 1 0624 s 8 000 083 081 000 000 000 000 106 
15:38:36:5599 Tx 1 0616 s 8 000 000 000 000 050 045 001 000 
15:38:36:6299 Rx 1 0624 s 8 000 083 081 000 000 000 000 106 
15:38:37:0314 Rx 1 0624 s 8 000 083 081 000 000 000 000 106 
15:38:37:3374 Tx 1 0616 s 8 000 000 000 000 050 045 001 000 
15:38:37:4328 Rx 1 0624 s 8 000 083 081 000 000 000 000 106 
15:38:37:8341 Rx 1 0624 s 8 000 083 081 000 000 000 000 106 
15:38:38:1087 Tx 1 0616 s 8 000 000 000 000 050 045 001 000 
15:38:38:2356 Rx 1 0624 s 8 000 083 081 000 000 000 000 106 
15:38:38:6370 Rx 1 0624 s 8 000 083 081 000 000 000 000 106 
15:38:38:8728 Tx 1 0616 s 8 000 000 000 000 050 045 001 000 
15:38:39:0384 Rx 1 0624 s 8 000 083 081 000 000 000 000 106 
15:38:39:4400 Rx 1 0624 s 8 000 083 081 000 000 000 000 106 
15:38:39:6586 Tx 1 0616 s 8 000 000 000 000 050 045 001 000 
15:38:39:8412 Rx 1 0624 s 8 000 083 081 000 000 000 000 106 
15:38:40:2426 Rx 1 0624 s 8 000 083 081 000 000 000 000 106 
15:38:40:4607 Tx 1 0616 s 8 000 000 000 000 050 045 001 000 
15:38:40:6440 Rx 1 0624 s 8 000 083 081 000 000 000 000 106 
15:38:41:0454 Rx 1 0624 s 8 000 083 081 000 000 000 000 106 
15:38:41:2605 Tx 1 0616 s 8 000 000 000 000 050 045 001 000 
15:38:41:4468 Rx 1 0624 s 8 000 083 081 000 000 000 000 106 
15:38:41:8483 Rx 1 0624 s 8 000 083 081 000 000 000 000 106 
15:38:42:0618 Tx 1 0616 s 8 000 000 000 000 050 045 001 000 
15:38:42:2497 Rx 1 0624 s 8 000 083 081 000 000 000 000 106 
15:38:42:6511 Rx 1 0624 s 8 000 083 081 000 000 000 000 106 
15:38:42:8436 Tx 1 0616 s 8 000 000 000 000 050 045 001 000 
15:38:43:0526 Rx 1 0624 s 8 000 083 081 000 000 000 000 106 
15:38:43:4539 Rx 1 0624 s 8 000 083 081 000 000 000 000 106 
15:38:43:6610 Tx 1 0616 s 8 000 000 000 000 050 045 001 000 
15:38:43:8553 Rx 1 0624 s 8 000 083 081 000 000 000 000 106 
15:38:44:2568 Rx 1 0624 s 8 000 083 081 000 000 000 000 106 
15:38:44:4698 Tx 1 0616 s 8 000 000 000 000 050 045 001 000 
15:38:44:6582 Rx 1 0624 s 8 000 083 081 000 000 000 000 106 
15:38:45:0596 Rx 1 0624 s 8 000 083 081 000 000 000 000 106 
15:38:45:2494 Tx 1 0616 s 8 000 000 000 000 050 045 001 000 
15:38:45:4612 Rx 1 0624 s 8 000 083 081 000 000 000 000 106 
15:38:45:8624 Rx 1 0624 s 8 000 083 081 000 000 000 000 106 
15:38:46:0334 Tx 1 0616 s 8 000 000 000 000 050 045 001 000 
15:38:46:2639 Rx 1 0624 s 8 000 083 081 000 000 000 000 106 
15:38:46:6654 Rx 1 0624 s 8 000 083 081 000 000 000 000 106 
15:38:46:8246 Tx 1 0616 s 8 000 000 000 000 050 045 001 000 
15:38:47:0668 Rx 1 0624 s 8 000 083 081 000 000 000 000 106 
15:38:47:4681 Rx 1 0624 s 8 000 083 081 000 000 000 000 106 
15:38:47:6033 Tx 1 0616 s 8 000 000 000 000 050 045 001 000 
15:38:47:8695 Rx 1 0624 s 8 000 083 081 000 000 000 000 106 
15:38:48:2714 Rx 1 0624 s 8 000 083 081 000 000 000 000 106 
15:38:48:3904 Tx 1 0616 s 8 000 000 000 000 050 045 001 000 
15:38:48:6725 Rx 1 0624 s 8 000 083 081 000 000 000 000 106 
15:38:49:0738 Rx 1 0624 s 8 000 083 081 000 000 000 000 106 
15:38:49:1830 Tx 1 0616 s 8 000 000 000 000 050 045 001 000 
15:38:49:4752 Rx 1 0624 s 8 000 083 081 000 000 000 000 106 
15:38:49:8766 Rx 1 0624 s 8 000 083 081 000 000 000 000 106 
15:38:49:9665 Tx 1 0616 s 8 000 000 000 000 050 045 001 000 
15:38:50:2780 Rx 1 0624 s 8 000 083 081 000 000 000 000 106 
15:38:50:6794 Rx 1 0624 s 8 000 083 081 000 000 000 000 106 
15:38:50:7572 Tx 1 0616 s 8 000 000 000 000 050 045 001 000 
15:38:51:0808 Rx 1 0624 s 8 000 082 081 000 000 000 000 106 
15:38:51:4823 Rx 1 0624 s 8 000 082 081 000 000 000 000 106 
15:38:51:5314 Tx 1 0616 s 8 000 000 000 000 050 045 001 000 
15:38:51:8837 Rx 1 0624 s 8 000 082 081 000 000 000 000 106 
15:38:52:2850 Rx 1 0624 s 8 000 082 081 000 000 000 000 106 
15:38:52:3249 Tx 1 0616 s 8 000 000 000 000 050 045 001 000 
15:38:52:6864 Rx 1 0624 s 8 000 082 081 000 000 000 000 106 
15:38:53:0879 Rx 1 0624 s 8 000 082 081 000 000 000 000 106 
15:38:53:1307 Tx 1 0616 s 8 000 000 000 000 050 045 001 000 
15:38:53:4893 Rx 1 0624 s 8 000 082 081 000 000 000 000 106 
15:38:53:8907 Rx 1 0624 s 8 000 082 081 000 000 000 000 106 
15:38:53:9174 Tx 1 0616 s 8 000 000 000 000 050 045 001 000 
15:38:54:2923 Rx 1 0624 s 8 000 082 081 000 000 000 000 106 
15:38:54:6880 Tx 1 0616 s 8 000 000 000 000 050 045 001 000 
15:38:54:6935 Rx 1 0624 s 8 000 082 081 000 000 000 000 106 
15:38:55:0951 Rx 1 0624 s 8 000 082 081 000 000 000 000 106 
15:38:55:4706 Tx 1 0616 s 8 000 000 000 000 050 045 001 000 
15:38:55:4965 Rx 1 0624 s 8 000 082 081 000 000 000 000 106 
15:38:55:8978 Rx 1 0624 s 8 000 082 081 000 000 000 000 106 
15:38:56:2642 Tx 1 0616 s 8 000 000 000 000 050 045 001 000 
15:38:56:2993 Rx 1 0624 s 8 000 082 081 000 000 000 000 106 
15:38:56:7008 Rx 1 0624 s 8 000 082 081 000 000 000 000 106 
15:38:57:0621 Tx 1 0616 s 8 000 000 000 000 050 045 001 000 
15:38:57:1022 Rx 1 0624 s 8 000 082 081 000 000 000 000 106 
15:38:57:5035 Rx 1 0624 s 8 000 082 081 000 000 000 000 106 
15:38:57:8494 Tx 1 0616 s 8 000 000 000 000 050 045 001 000 
15:38:57:9052 Rx 1 0624 s 8 000 082 081 000 000 000 000 106 
15:38:58:3063 Rx 1 0624 s 8 000 082 081 000 000 000 000 106 
15:38:58:6387 Tx 1 0616 s 8 000 000 000 000 050 045 001 000 
15:38:58:7077 Rx 1 0624 s 8 000 082 081 000 000 000 000 106 
15:38:59:1091 Rx 1 0624 s 8 000 082 081 000 000 000 000 106 
15:38:59:4299 Tx 1 0616 s 8 000 000 000 000 050 045 001 000 
15:38:59:5105 Rx 1 0624 s 8 000 082 081 000 000 000 000 106 
15:38:59:9119 Rx 1 0624 s 8 000 082 081 000 000 000 000 106 
15:39:00:2124 Tx 1 0616 s 8 000 000 000 000 050 045 001 000 
15:39:00:3134 Rx 1 0624 s 8 000 082 081 000 000 000 000 106 
15:39:00:7148 Rx 1 0624 s 8 000 082 081 000 000 000 000 106 
15:39:00:9897 Tx 1 0616 s 8 000 000 000 000 050 045 001 000 
15:39:01:1162 Rx 1 0624 s 8 000 082 081 000 000 000 000 106 
15:39:01:5176 Rx 1 0624 s 8 000 082 081 000 000 000 000 106 
15:39:01:7515 Tx 1 0616 s 8 000 000 000 000 050 045 001 000 
15:39:01:9191 Rx 1 0624 s 8 000 082 081 000 000 000 000 106 
15:39:02:3204 Rx 1 0624 s 8 000 082 081 000 000 000 000 106 
15:39:02:5539 Tx 1 0616 s 8 000 000 000 000 050 045 001 000 
15:39:02:7217 Rx 1 0624 s 8 000 082 081 000 000 000 000 106 
15:39:03:1232 Rx 1 0624 s 8 000 082 081 000 000 000 000 106 
15:39:03:3177 Tx 1 0616 s 8 000 000 000 000 050 045 001 000 
15:39:03:5246 Rx 1 0624 s 8 000 082 081 000 000 000 000 106 
15:39:03:9260 Rx 1 0624 s 8 000 082 081 000 000 000 000 106 
15:39:04:1029 Tx 1 0616 s 8 000 000 000 000 050 045 001 000 
15:39:04:3275 Rx 1 0624 s 8 000 082 081 000 000 000 000 106 
15:39:04:7289 Rx 1 0624 s 8 000 082 081 000 000 000 000 106 
15:39:04:9088 Tx 1 0616 s 8 000 000 000 000 050 045 001 000 
15:39:05:1302 Rx 1 0624 s 8 000 082 081 000 000 000 000 106 
15:39:05:5316 Rx 1 0624 s 8 000 082 081 000 000 000 000 106 
15:39:05:6757 Tx 1 0616 s 8 000 000 000 000 050 045 001 000 
15:39:05:9332 Rx 1 0624 s 8 000 082 081 000 000 000 000 106 
15:39:06:3345 Rx 1 0624 s 8 000 082 081 000 000 000 000 106 
15:39:06:4683 Tx 1 0616 s 8 000 000 000 000 050 045 001 000 
15:39:06:7359 Rx 1 0624 s 8 000 082 081 000 000 000 000 106 
15:39:07:1375 Rx 1 0624 s 8 000 082 081 000 000 000 000 106 
15:39:07:2590 Tx 1 0616 s 8 000 000 000 000 050 045 001 000 
15:39:07:5389 Rx 1 0624 s 8 000 082 081 000 000 000 000 106 
15:39:07:9406 Rx 1 0624 s 8 000 082 081 000 000 000 000 106 
15:39:08:0352 Tx 1 0616 s 8 000 000 000 000 050 045 001 000 
15:39:08:3416 Rx 1 0624 s 8 000 082 081 000 000 000 000 106 
15:39:08:7430 Rx 1 0624 s 8 000 082 081 000 000 000 000 106 
15:39:08:8503 Tx 1 0616 s 8 000 000 000 000 050 045 001 000 
15:39:09:1444 Rx 1 0624 s 8 000 082 081 000 000 000 000 106 
15:39:09:5460 Rx 1 0624 s 8 000 082 081 000 000 000 000 106 
15:39:09:6487 Tx 1 0616 s 8 000 000 000 000 050 045 001 000 
15:39:09:9473 Rx 1 0624 s 8 000 082 081 000 000 000 000 106 
15:39:10:3487 Rx 1 0624 s 8 000 082 081 000 000 000 000 106 
15:39:10:4402 Tx 1 0616 s 8 000 000 000 000 050 045 001 000 
15:39:10:7501 Rx 1 0624 s 8 000 082 081 000 000 000 000 106 
15:39:11:1515 Rx 1 0624 s 8 000 082 081 000 000 000 000 106 
15:39:11:2407 Tx 1 0616 s 8 000 000 000 000 050 045 001 000 
15:39:11:5529 Rx 1 0624 s 8 000 082 081 000 000 000 000 106 
15:39:11:9544 Rx 1 0624 s 8 000 082 081 000 000 000 000 106 
15:39:12:0197 Tx 1 0616 s 8 000 000 000 000 050 045 001 000 
15:39:12:3557 Rx 1 0624 s 8 000 082 081 000 000 000 000 106 
15:39:12:7572 Rx 1 0624 s 8 000 082 081 000 000 000 000 106 
15:39:12:8190 Tx 1 0616 s 8 000 000 000 000 050 045 001 000 
15:39:13:1587 Rx 1 0624 s 8 000 082 081 000 000 000 000 106 
15:39:13:5602 Rx 1 0624 s 8 000 082 081 000 000 000 000 106 
15:39:13:5966 Tx 1 0616 s 8 000 000 000 000 050 045 001 000 
15:39:13:9614 Rx 1 0624 s 8 000 082 081 000 000 000 000 106 
15:39:14:3628 Rx 1 0624 s 8 000 082 081 000 000 000 000 106 
15:39:14:3949 Tx 1 0616 s 8 000 000 000 000 050 045 001 000 
15:39:14:7642 Rx 1 0624 s 8 000 082 081 000 000 000 000 106 
15:39:15:1656 Rx 1 0624 s 8 000 082 081 000 000 000 000 106 
15:39:15:1772 Tx 1 0616 s 8 000 000 000 000 050 045 001 000 
15:39:15:5670 Rx 1 0624 s 8 000 082 081 000 000 000 000 106 
15:39:15:9590 Tx 1 0616 s 8 000 000 000 000 050 045 001 000 
15:39:15:9684 Rx 1 0624 s 8 000 082 081 000 000 000 000 106 
15:39:16:3699 Rx 1 0624 s 8 000 082 081 000 000 000 000 106 
15:39:16:7606 Tx 1 0616 s 8 000 000 000 000 050 045 001 000 
15:39:16:7713 Rx 1 0624 s 8 000 082 081 000 000 000 000 106 
15:39:17:1728 Rx 1 0624 s 8 000 082 081 000 000 000 000 106 
15:39:17:5597 Tx 1 0616 s 8 000 000 000 000 050 045 001 000 
15:39:17:5746 Rx 1 0624 s 8 000 082 081 000 000 000 000 106 
15:39:17:9757 Rx 1 0624 s 8 000 082 081 000 000 000 000 106 
15:39:18:3378 Tx 1 0616 s 8 000 000 000 000 050 045 001 000 
15:39:18:3770 Rx 1 0624 s 8 000 082 081 000 000 000 000 106 
15:39:18:7784 Rx 1 0624 s 8 000 082 081 000 000 000 000 106 
15:39:19:1265 Tx 1 0616 s 8 000 000 000 000 050 045 001 000 
15:39:19:1797 Rx 1 0624 s 8 000 082 081 000 000 000 000 106 
15:39:19:5812 Rx 1 0624 s 8 000 082 081 000 000 000 000 106 
15:39:19:8955 Tx 1 0616 s 8 000 000 000 000 050 045 001 000 
15:39:19:9826 Rx 1 0624 s 8 000 082 081 000 000 000 000 106 
15:39:20:3840 Rx 1 0624 s 8 000 082 081 000 000 000 000 106 
15:39:20:7095 Tx 1 0616 s 8 000 000 000 000 050 045 001 000 
15:39:20:7854 Rx 1 0624 s 8 000 082 081 000 000 000 000 106 
15:39:21:1868 Rx 1 0624 s 8 000 082 081 000 000 000 000 106 
15:39:21:5136 Tx 1 0616 s 8 000 000 000 000 050 045 001 000 
15:39:21:5884 Rx 1 0624 s 8 000 082 081 000 000 000 000 106 
15:39:21:9897 Rx 1 0624 s 8 000 082 081 000 000 000 000 106 
15:39:22:3072 Tx 1 0616 s 8 000 000 000 000 050 045 001 000 
15:39:22:3911 Rx 1 0624 s 8 000 082 081 000 000 000 000 106 
15:39:22:7925 Rx 1 0624 s 8 000 082 081 000 000 000 000 106 
15:39:23:1035 Tx 1 0616 s 8 000 000 000 000 050 045 001 000 
15:39:23:1939 Rx 1 0624 s 8 000 082 081 000 000 000 000 106 
15:39:23:5954 Rx 1 0624 s 8 000 082 081 000 000 000 000 106 
15:39:23:8858 Tx 1 0616 s 8 000 000 000 000 050 045 001 000 
15:39:23:9968 Rx 1 0624 s 8 000 082 081 000 000 000 000 106 
15:39:24:3982 Rx 1 0624 s 8 000 082 081 000 000 000 000 106 
15:39:24:6756 Tx 1 0616 s 8 000 000 000 000 050 045 001 000 
15:39:24:7997 Rx 1 0624 s 8 000 082 081 000 000 000 000 106 
15:39:25:2011 Rx 1 0624 s 8 000 082 081 000 000 000 000 106 
15:39:25:4714 Tx 1 0616 s 8 000 000 000 000 050 045 001 000 
15:39:25:6025 Rx 1 0624 s 8 000 082 081 000 000 000 000 106 
15:39:26:0038 Rx 1 0624 s 8 000 082 081 000 000 000 000 106 
15:39:26:2529 Tx 1 0616 s 8 000 000 000 000 050 045 001 000 
15:39:26:4052 Rx 1 0624 s 8 000 082 081 000 000 000 000 106 
15:39:26:8066 Rx 1 0624 s 8 000 082 081 000 000 000 000 106 
15:39:27:0457 Tx 1 0616 s 8 000 000 000 000 050 045 001 000 
15:39:27:2080 Rx 1 0624 s 8 000 082 081 000 000 000 000 106 
15:39:27:6094 Rx 1 0624 s 8 000 082 081 000 000 000 000 106 
15:39:27:8336 Tx 1 0616 s 8 000 000 000 000 050 045 001 000 
15:39:28:0110 Rx 1 0624 s 8 000 082 081 000 000 000 000 106 
15:39:28:4125 Rx 1 0624 s 8 000 082 081 000 000 000 000 106 
15:39:28:6363 Tx 1 0616 s 8 000 000 000 000 050 045 001 000 
15:39:28:8137 Rx 1 0624 s 8 000 082 081 000 000 000 000 106 
15:39:29:2151 Rx 1 0624 s 8 000 082 081 000 000 000 000 106 
15:39:29:4236 Tx 1 0616 s 8 000 000 000 000 050 045 001 000 
15:39:29:6167 Rx 1 0624 s 8 000 082 081 000 000 000 000 106 
15:39:30:0179 Rx 1 0624 s 8 000 082 081 000 000 000 000 106 
15:39:30:2142 Tx 1 0616 s 8 000 000 000 000 050 045 001 000 
15:39:30:4194 Rx 1 0624 s 8 000 082 081 000 000 000 000 106 
15:39:30:8208 Rx 1 0624 s 8 000 082 081 000 000 000 000 106 
15:39:31:0189 Tx 1 0616 s 8 000 000 000 000 050 045 001 000 
15:39:31:2222 Rx 1 0624 s 8 000 082 081 000 000 000 000 106 
15:39:31:6236 Rx 1 0624 s 8 000 082 081 000 000 000 000 106 
15:39:31:8068 Tx 1 0616 s 8 000 000 000 000 050 045 001 000 
15:39:32:0250 Rx 1 0624 s 8 000 082 081 000 000 000 000 106 
15:39:32:4265 Rx 1 0624 s 8 000 082 081 000 000 000 000 106 
15:39:32:5977 Tx 1 0616 s 8 000 000 000 000 050 045 001 000 
15:39:32:8279 Rx 1 0624 s 8 000 082 081 000 000 000 000 106 
15:39:33:2293 Rx 1 0624 s 8 000 082 081 000 000 000 000 106 
15:39:33:3851 Tx 1 0616 s 8 000 000 000 000 050 045 001 000 
15:39:33:6308 Rx 1 0624 s 8 000 082 081 000 000 000 000 106 
15:39:34:0322 Rx 1 0624 s 8 000 082 081 000 000 000 000 106 
15:39:34:1712 Tx 1 0616 s 8 000 000 000 000 050 045 001 000 
15:39:34:4337 Rx 1 0624 s 8 000 082 081 000 000 000 000 106 
15:39:34:8350 Rx 1 0624 s 8 000 082 081 000 000 000 000 106 
15:39:34:9639 Tx 1 0616 s 8 000 000 000 000 050 045 001 000 
15:39:35:2364 Rx 1 0624 s 8 000 082 081 000 000 000 000 106 
15:39:35:6378 Rx 1 0624 s 8 000 082 081 000 000 000 000 106 
15:39:35:7526 Tx 1 0616 s 8 000 000 000 000 050 045 001 000 
15:39:36:0392 Rx 1 0624 s 8 000 082 081 000 000 000 000 106 
15:39:36:4406 Rx 1 0624 s 8 000 082 081 000 000 000 000 106 
15:39:36:5364 Tx 1 0616 s 8 000 000 000 000 050 045 001 000 
15:39:36:8420 Rx 1 0624 s 8 000 082 081 000 000 000 000 106 
15:39:37:2436 Rx 1 0624 s 8 000 082 081 000 000 000 000 106 
15:39:37:3280 Tx 1 0616 s 8 000 000 000 000 050 045 001 000 
15:39:37:6449 Rx 1 0624 s 8 000 082 081 000 000 000 000 106 
15:39:38:0467 Rx 1 0624 s 8 000 082 081 000 000 000 000 106 
15:39:38:1146 Tx 1 0616 s 8 000 000 000 000 050 045 001 000 
15:39:38:4477 Rx 1 0624 s 8 000 082 081 000 000 000 000 106 
15:39:38:8491 Rx 1 0624 s 8 000 082 081 000 000 000 000 106 
15:39:38:9046 Tx 1 0616 s 8 000 000 000 000 050 045 001 000 
15:39:39:2504 Rx 1 0624 s 8 000 082 081 000 000 000 000 106 
15:39:39:6519 Rx 1 0624 s 8 000 082 081 000 000 000 000 106 
15:39:39:7011 Tx 1 0616 s 8 000 000 000 000 050 045 001 000 
15:39:40:0533 Rx 1 0624 s 8 000 082 081 000 000 000 000 106 
15:39:40:4547 Rx 1 0624 s 8 000 082 081 000 000 000 000 106 
15:39:40:4766 Tx 1 0616 s 8 000 000 000 000 050 045 001 000 
15:39:40:8561 Rx 1 0624 s 8 000 082 081 000 000 000 000 106 
15:39:41:2576 Rx 1 0624 s 8 000 082 081 000 000 000 000 106 
15:39:41:2634 Tx 1 0616 s 8 000 000 000 000 050 045 001 000 
15:39:41:6590 Rx 1 0624 s 8 000 082 081 000 000 000 000 106 
15:39:42:0332 Tx 1 0616 s 8 000 000 000 000 050 045 001 000 
15:39:42:0605 Rx 1 0624 s 8 000 082 081 000 000 000 000 106 
15:39:42:4618 Rx 1 0624 s 8 000 082 081 000 000 000 000 106 
15:39:42:8127 Tx 1 0616 s 8 000 000 000 000 050 045 001 000 
15:39:42:8632 Rx 1 0624 s 8 000 082 081 000 000 000 000 106 
15:39:43:2646 Rx 1 0624 s 8 000 082 081 000 000 000 000 106 
15:39:43:6151 Tx 1 0616 s 8 000 000 000 000 050 045 001 000 
15:39:43:6662 Rx 1 0624 s 8 000 082 081 000 000 000 000 106 
15:39:44:0674 Rx 1 0624 s 8 000 082 081 000 000 000 000 106 
15:39:44:3929 Tx 1 0616 s 8 000 000 000 000 050 045 001 000 
15:39:44:4689 Rx 1 0624 s 8 000 082 081 000 000 000 000 106 
15:39:44:8703 Rx 1 0624 s 8 000 082 081 000 000 000 000 106 
15:39:45:1804 Tx 1 0616 s 8 000 000 000 000 050 045 001 000 
15:39:45:2718 Rx 1 0624 s 8 000 082 081 000 000 000 000 106 
15:39:45:6731 Rx 1 0624 s 8 000 082 081 000 000 000 000 106 
15:39:45:9646 Tx 1 0616 s 8 000 000 000 000 050 045 001 000 
15:39:46:0745 Rx 1 0624 s 8 000 082 081 000 000 000 000 106 
15:39:46:4759 Rx 1 0624 s 8 000 082 081 000 000 000 000 106 
15:39:46:7444 Tx 1 0616 s 8 000 000 000 000 050 045 001 000 
15:39:46:8774 Rx 1 0624 s 8 000 082 081 000 000 000 000 106 
15:39:47:2788 Rx 1 0624 s 8 000 082 081 000 000 000 000 106 
15:39:47:5062 Tx 1 0616 s 8 000 000 000 000 050 045 001 000 
15:39:47:6802 Rx 1 0624 s 8 000 082 081 000 000 000 000 106 
15:39:48:0818 Rx 1 0624 s 8 000 082 081 000 000 000 000 106 
15:39:48:2893 Tx 1 0616 s 8 000 000 000 000 050 045 001 000 
15:39:48:4830 Rx 1 0624 s 8 000 082 081 000 000 000 000 106 
15:39:48:8844 Rx 1 0624 s 8 000 082 081 000 000 000 000 106 
15:39:49:0822 Tx 1 0616 s 8 000 000 000 000 050 045 001 000 
15:39:49:2860 Rx 1 0624 s 8 000 082 081 000 000 000 000 106 
15:39:49:6873 Rx 1 0624 s 8 000 082 081 000 000 000 000 106 
15:39:49:8621 Tx 1 0616 s 8 000 000 000 000 050 045 001 000 
15:39:50:0887 Rx 1 0624 s 8 000 082 081 000 000 000 000 106 
15:39:50:4901 Rx 1 0624 s 8 000 082 081 000 000 000 000 106 
15:39:50:6464 Tx 1 0616 s 8 000 000 000 000 050 045 001 000 
15:39:50:8915 Rx 1 0624 s 8 000 082 081 000 000 000 000 106 
15:39:51:2931 Rx 1 0624 s 8 000 082 081 000 000 000 000 106 
15:39:51:4325 Tx 1 0616 s 8 000 000 000 000 050 045 001 000 
15:39:51:6943 Rx 1 0624 s 8 000 082 081 000 000 000 000 106 
15:39:52:0958 Rx 1 0624 s 8 000 082 081 000 000 000 000 106 
15:39:52:2163 Tx 1 0616 s 8 000 000 000 000 050 045 001 000 
15:39:52:4972 Rx 1 0624 s 8 000 082 081 000 000 000 000 106 
15:39:52:8986 Rx 1 0624 s 8 000 082 081 000 000 000 000 106 
15:39:53:0054 Tx 1 0616 s 8 000 000 000 000 050 045 001 000 
15:39:53:3001 Rx 1 0624 s 8 000 082 081 000 000 000 000 106 
15:39:53:7015 Rx 1 0624 s 8 000 082 081 000 000 000 000 106 
15:39:53:7962 Tx 1 0616 s 8 000 000 000 000 050 045 001 000 
15:39:54:1028 Rx 1 0624 s 8 000 082 081 000 000 000 000 106 
15:39:54:5043 Rx 1 0624 s 8 000 082 081 000 000 000 000 106 
15:39:54:5419 Tx 1 0616 s 8 000 000 000 000 050 045 001 000 
15:39:54:9058 Rx 1 0624 s 8 000 082 081 000 000 000 000 106 
15:39:55:3025 Tx 1 0616 s 8 000 000 000 000 050 045 001 000 
15:39:55:3071 Rx 1 0624 s 8 000 082 081 000 000 000 000 106 
15:39:55:7085 Rx 1 0624 s 8 000 082 081 000 000 000 000 106 
15:39:56:0608 Tx 1 0616 s 8 000 000 000 000 050 045 001 000 
15:39:56:1101 Rx 1 0624 s 8 000 082 081 000 000 000 000 106 
15:39:56:5114 Rx 1 0624 s 8 000 082 081 000 000 000 000 106 
15:39:56:8522 Tx 1 0616 s 8 000 000 000 000 050 045 001 000 
15:39:56:9127 Rx 1 0624 s 8 000 082 081 000 000 000 000 106 
15:39:57:3143 Rx 1 0624 s 8 000 082 081 000 000 000 000 106 
15:39:57:6635 Tx 1 0616 s 8 000 000 000 000 050 045 001 000 
15:39:57:7158 Rx 1 0624 s 8 000 082 081 000 000 000 000 106 
15:39:58:1170 Rx 1 0624 s 8 000 082 081 000 000 000 000 106 
15:39:58:4542 Tx 1 0616 s 8 000 000 000 000 050 045 001 000 
15:39:58:5184 Rx 1 0624 s 8 000 082 081 000 000 000 000 106 
15:39:58:9198 Rx 1 0624 s 8 000 082 081 000 000 000 000 106 
15:39:59:2296 Tx 1 0616 s 8 000 000 000 000 050 045 001 000 
15:39:59:3212 Rx 1 0624 s 8 000 082 081 000 000 000 000 106 
15:39:59:7226 Rx 1 0624 s 8 000 082 081 000 000 000 000 106 
15:40:00:0212 Tx 1 0616 s 8 000 000 000 000 050 045 001 000 
15:40:00:1241 Rx 1 0624 s 8 000 082 081 000 000 000 000 106 
15:40:00:5254 Rx 1 0624 s 8 000 082 081 000 000 000 000 106 
15:40:00:8079 Tx 1 0616 s 8 000 000 000 000 050 045 001 000 
15:40:00:9269 Rx 1 0624 s 8 000 082 081 000 000 000 000 106 
15:40:01:3284 Rx 1 0624 s 8 000 082 081 000 000 000 000 106 
15:40:01:5872 Tx 1 0616 s 8 000 000 000 000 050 045 001 000 
15:40:01:7297 Rx 1 0624 s 8 000 082 081 000 000 000 000 106 
15:40:02:1312 Rx 1 0624 s 8 000 082 081 000 000 000 000 107 
15:40:02:3865 Tx 1 0616 s 8 000 000 000 000 050 045 001 000 
15:40:02:5327 Rx 1 0624 s 8 000 082 081 000 000 000 000 106 
15:40:02:9339 Rx 1 0624 s 8 000 082 081 000 000 000 000 106 
15:40:03:1550 Tx 1 0616 s 8 000 000 000 000 050 045 001 000 
15:40:03:3354 Rx 1 0624 s 8 000 082 081 000 000 000 000 106 
15:40:03:7368 Rx 1 0624 s 8 000 082 081 000 000 000 000 106 
15:40:03:9053 Tx 1 0616 s 8 000 000 000 000 050 045 001 000 
15:40:04:1382 Rx 1 0624 s 8 000 082 081 000 000 000 000 107 
15:40:04:5396 Rx 1 0624 s 8 000 082 081 000 000 000 000 106 
15:40:04:6561 Tx 1 0616 s 8 000 000 000 000 050 045 001 000 
15:40:04:9411 Rx 1 0624 s 8 000 082 081 000 000 000 000 106 
15:40:05:3425 Rx 1 0624 s 8 000 082 081 000 000 000 000 107 
15:40:05:4153 Tx 1 0616 s 8 000 000 000 000 050 045 001 000 
15:40:05:7439 Rx 1 0624 s 8 000 082 081 000 000 000 000 106 
15:40:06:1453 Rx 1 0624 s 8 000 082 081 000 000 000 000 106 
15:40:06:2136 Tx 1 0616 s 8 000 000 000 000 050 045 001 000 
15:40:06:5468 Rx 1 0624 s 8 000 082 081 000 000 000 000 106 
15:40:06:9481 Rx 1 0624 s 8 000 082 081 000 000 000 000 106 
15:40:06:9930 Tx 1 0616 s 8 000 000 000 000 050 045 001 000 
15:40:07:3496 Rx 1 0624 s 8 000 082 081 000 000 000 000 107 
15:40:07:7512 Rx 1 0624 s 8 000 082 081 000 000 000 000 106 
15:40:07:7834 Tx 1 0616 s 8 000 000 000 000 050 045 001 000 
15:40:08:1524 Rx 1 0624 s 8 000 082 081 000 000 000 000 107 
15:40:08:5538 Rx 1 0624 s 8 000 082 081 000 000 000 000 106 
15:40:08:5749 Tx 1 0616 s 8 000 000 000 000 050 045 001 000 
15:40:08:9552 Rx 1 0624 s 8 000 082 081 000 000 000 000 107 
15:40:09:3421 Tx 1 0616 s 8 000 000 000 000 050 045 001 000 
15:40:09:3566 Rx 1 0624 s 8 000 082 081 000 000 000 000 107 
15:40:09:7582 Rx 1 0624 s 8 000 082 081 000 000 000 000 106 
15:40:10:1275 Tx 1 0616 s 8 000 000 000 000 050 045 001 000 
15:40:10:1596 Rx 1 0624 s 8 000 082 081 000 000 000 000 107 
15:40:10:5608 Rx 1 0624 s 8 000 082 081 000 000 000 000 106 
15:40:10:9046 Tx 1 0616 s 8 000 000 000 000 050 045 001 000 
15:40:10:9623 Rx 1 0624 s 8 000 082 081 000 000 000 000 106 
15:40:11:3637 Rx 1 0624 s 8 000 082 081 000 000 000 000 107 
15:40:11:6758 Tx 1 0616 s 8 000 000 000 000 050 045 001 000 
15:40:11:7651 Rx 1 0624 s 8 000 082 081 000 000 000 000 106 
15:40:12:1667 Rx 1 0624 s 8 000 082 081 000 000 000 000 106 
15:40:12:4566 Tx 1 0616 s 8 000 000 000 000 050 045 001 000 
15:40:12:5680 Rx 1 0624 s 8 000 082 081 000 000 000 000 106 
15:40:12:9695 Rx 1 0624 s 8 000 082 081 000 000 000 000 106 
15:40:13:2329 Tx 1 0616 s 8 000 000 000 000 050 045 001 000 
15:40:13:3707 Rx 1 0624 s 8 000 082 081 000 000 000 000 107 
15:40:13:7722 Rx 1 0624 s 8 000 082 081 000 000 000 000 106 
15:40:13:9985 Tx 1 0616 s 8 000 000 000 000 050 045 001 000 
15:40:14:1736 Rx 1 0624 s 8 000 082 081 000 000 000 000 107 
15:40:14:5750 Rx 1 0624 s 8 000 082 081 000 000 000 000 106 
15:40:14:7728 Tx 1 0616 s 8 000 000 000 000 050 045 001 000 
15:40:14:9764 Rx 1 0624 s 8 000 082 081 000 000 000 000 106 
15:40:15:3778 Rx 1 0624 s 8 000 082 081 000 000 000 000 107 
15:40:15:5575 Tx 1 0616 s 8 000 000 000 000 050 045 001 000 
15:40:15:7793 Rx 1 0624 s 8 000 082 081 000 000 000 000 106 
15:40:16:1807 Rx 1 0624 s 8 000 082 081 000 000 000 000 107 
15:40:16:3282 Tx 1 0616 s 8 000 000 000 000 050 045 001 000 
15:40:16:5821 Rx 1 0624 s 8 000 082 081 000 000 000 000 106 
15:40:16:9835 Rx 1 0624 s 8 000 082 081 000 000 000 000 106 
15:40:17:1100 Tx 1 0616 s 8 000 000 000 000 050 045 001 000 
15:40:17:3849 Rx 1 0624 s 8 000 082 081 000 000 000 000 107 
15:40:17:7866 Rx 1 0624 s 8 000 082 081 000 000 000 000 106 
15:40:17:9002 Tx 1 0616 s 8 000 000 000 000 050 045 001 000 
15:40:18:1878 Rx 1 0624 s 8 000 082 081 000 000 000 000 107 
15:40:18:5891 Rx 1 0624 s 8 000 082 081 000 000 000 000 106 
15:40:18:6831 Tx 1 0616 s 8 000 000 000 000 050 045 001 000 
15:40:18:9905 Rx 1 0624 s 8 000 082 081 000 000 000 000 106 
15:40:19:3920 Rx 1 0624 s 8 000 082 081 000 000 000 000 107 
15:40:19:4649 Tx 1 0616 s 8 000 000 000 000 050 045 001 000 
15:40:19:7934 Rx 1 0624 s 8 000 082 081 000 000 000 000 106 
15:40:20:1948 Rx 1 0624 s 8 000 082 081 000 000 000 000 107 
15:40:20:2555 Tx 1 0616 s 8 000 000 000 000 050 045 001 000 
15:40:20:5964 Rx 1 0624 s 8 000 082 081 000 000 000 000 106 
15:40:20:9978 Rx 1 0624 s 8 000 082 081 000 000 000 000 106 
15:40:21:0229 Tx 1 0616 s 8 000 000 000 000 050 045 001 000 
15:40:21:3990 Rx 1 0624 s 8 000 082 081 000 000 000 000 107 
15:40:21:7998 Tx 1 0616 s 8 000 000 000 000 050 045 001 000 
15:40:21:8005 Rx 1 0624 s 8 000 082 081 000 000 000 000 106 
15:40:22:2021 Rx 1 0624 s 8 000 082 081 000 000 000 000 107 
15:40:22:5779 Tx 1 0616 s 8 000 000 000 000 050 045 001 000 
15:40:22:6033 Rx 1 0624 s 8 000 082 081 000 000 000 000 106 
15:40:23:0047 Rx 1 0624 s 8 000 082 081 000 000 000 000 106 
15:40:23:3612 Tx 1 0616 s 8 000 000 000 000 050 045 001 000 
15:40:23:4061 Rx 1 0624 s 8 000 082 081 000 000 000 000 107 
15:40:23:8075 Rx 1 0624 s 8 000 082 081 000 000 000 000 106 
15:40:24:1441 Tx 1 0616 s 8 000 000 000 000 050 045 001 000 
15:40:24:2089 Rx 1 0624 s 8 000 082 081 000 000 000 000 107 
15:40:24:6104 Rx 1 0624 s 8 000 081 081 001 000 000 000 107 
15:40:24:9131 Tx 1 0616 s 8 000 000 000 000 050 045 001 000 
15:40:25:0118 Rx 1 0624 s 8 000 081 081 001 000 000 000 106 
15:40:25:4132 Rx 1 0624 s 8 044 081 081 001 000 000 052 106 
15:40:25:6853 Tx 1 0616 s 8 000 000 000 000 050 045 001 000 
15:40:25:8147 Rx 1 0624 s 8 058 081 081 001 000 000 068 106 
15:40:26:2163 Rx 1 0624 s 8 069 081 081 001 000 000 081 106 
15:40:26:4783 Tx 1 0616 s 8 000 000 000 000 050 045 001 000 
15:40:26:6174 Rx 1 0624 s 8 073 081 081 001 000 000 086 106 
15:40:27:0189 Rx 1 0624 s 8 073 081 081 001 000 000 086 106 
15:40:27:2758 Tx 1 0616 s 8 000 000 000 000 050 045 001 000 
15:40:27:4202 Rx 1 0624 s 8 067 081 081 001 000 000 079 106 
15:40:27:8217 Rx 1 0624 s 8 057 081 081 001 000 000 067 106 
15:40:28:0368 Tx 1 0616 s 8 000 000 000 000 050 045 001 000 
15:40:28:2231 Rx 1 0624 s 8 048 081 081 001 000 000 056 106 
15:40:28:6245 Rx 1 0624 s 8 040 081 081 001 000 000 047 106 
15:40:28:8181 Tx 1 0616 s 8 000 000 000 000 050 045 001 000 
15:40:29:0259 Rx 1 0624 s 8 040 081 081 001 000 000 047 106 
15:40:29:4274 Rx 1 0624 s 8 034 081 081 001 000 000 040 106 
15:40:29:6293 Tx 1 0616 s 8 000 000 000 000 050 045 001 000 
15:40:29:8289 Rx 1 0624 s 8 031 082 081 001 000 000 036 106 
15:40:30:2304 Rx 1 0624 s 8 028 082 081 001 000 000 033 106 
15:40:30:4300 Tx 1 0616 s 8 000 000 000 000 050 045 001 000 
15:40:30:6316 Rx 1 0624 s 8 026 082 081 001 000 000 031 106 
15:40:31:0330 Rx 1 0624 s 8 026 082 081 001 000 000 031 106 
15:40:31:2295 Tx 1 0616 s 8 000 000 000 000 050 045 001 000 
15:40:31:4345 Rx 1 0624 s 8 051 082 081 001 000 000 060 106 
15:40:31:8359 Rx 1 0624 s 8 081 082 081 001 000 000 095 106 
15:40:32:0031 Tx 1 0616 s 8 000 000 000 000 050 045 001 000 
15:40:32:2372 Rx 1 0624 s 8 092 082 081 001 000 000 108 106 
15:40:32:6387 Rx 1 0624 s 8 099 082 081 001 000 000 117 106 
15:40:32:8035 Tx 1 0616 s 8 000 000 000 000 050 045 001 000 
15:40:33:0401 Rx 1 0624 s 8 099 082 081 001 000 000 117 106 
15:40:33:4416 Rx 1 0624 s 8 095 082 081 001 000 000 113 106 
15:40:33:6038 Tx 1 0616 s 8 000 000 000 000 050 045 001 000 
15:40:33:8429 Rx 1 0624 s 8 083 082 081 001 000 000 098 106 
15:40:34:2443 Rx 1 0624 s 8 072 082 081 001 000 000 085 106 
15:40:34:3900 Tx 1 0616 s 8 000 000 000 000 050 045 001 000 
15:40:34:6457 Rx 1 0624 s 8 063 082 081 001 000 000 074 106 
15:40:35:0472 Rx 1 0624 s 8 063 082 081 001 000 000 074 106 
15:40:35:1722 Tx 1 0616 s 8 000 000 000 000 050 045 001 000 
15:40:35:4487 Rx 1 0624 s 8 056 082 081 001 000 000 066 106 
15:40:35:8500 Rx 1 0624 s 8 052 082 081 001 000 000 061 106 
15:40:35:9581 Tx 1 0616 s 8 000 000 000 000 050 045 001 000 
15:40:36:2513 Rx 1 0624 s 8 049 082 081 001 000 000 058 106 
15:40:36:6527 Rx 1 0624 s 8 048 083 081 001 000 000 056 106 
15:40:36:7389 Tx 1 0616 s 8 000 000 000 000 050 045 001 000 
15:40:37:0542 Rx 1 0624 s 8 048 083 081 001 000 000 056 106 
15:40:37:4556 Rx 1 0624 s 8 046 083 081 001 000 000 055 106 
15:40:37:5510 Tx 1 0616 s 8 000 000 000 000 050 045 001 000 
15:40:37:8572 Rx 1 0624 s 8 046 083 081 001 000 000 054 106 
15:40:38:2585 Rx 1 0624 s 8 045 083 081 001 000 000 053 106 
15:40:38:3196 Tx 1 0616 s 8 000 000 000 000 050 045 001 000 
15:40:38:6598 Rx 1 0624 s 8 044 084 081 001 000 000 052 106 
15:40:39:0612 Rx 1 0624 s 8 044 084 081 001 000 000 052 106 
15:40:39:1004 Tx 1 0616 s 8 000 000 000 000 050 045 001 000 
15:40:39:4629 Rx 1 0624 s 8 044 084 081 001 000 000 052 106 
15:40:39:8641 Rx 1 0624 s 8 043 084 081 001 000 000 051 106 
15:40:39:8742 Tx 1 0616 s 8 000 000 000 000 050 045 001 000 
15:40:40:2657 Rx 1 0624 s 8 043 085 081 001 000 000 051 106 
15:40:40:6669 Rx 1 0624 s 8 043 085 081 001 000 000 051 106 
15:40:40:6730 Tx 1 0616 s 8 000 000 000 000 050 045 001 000 
15:40:41:0685 Rx 1 0624 s 8 043 085 081 001 000 000 051 106 
15:40:41:4695 Tx 1 0616 s 8 000 000 000 000 050 045 001 000 
15:40:41:4698 Rx 1 0624 s 8 043 085 081 001 000 000 050 106 
15:40:41:8712 Rx 1 0624 s 8 043 086 081 001 000 000 050 106 
15:40:42:2657 Tx 1 0616 s 8 000 000 000 000 050 045 001 000 
15:40:42:2726 Rx 1 0624 s 8 043 086 081 001 000 000 050 106 
15:40:42:6742 Rx 1 0624 s 8 043 086 081 001 000 000 050 106 
15:40:43:0367 Tx 1 0616 s 8 000 000 000 000 050 045 001 000 
15:40:43:0754 Rx 1 0624 s 8 043 087 081 001 000 000 050 106 
15:40:43:4768 Rx 1 0624 s 8 042 087 081 001 000 000 050 106 
15:40:43:8115 Tx 1 0616 s 8 000 000 000 000 050 045 001 000 
15:40:43:8784 Rx 1 0624 s 8 042 087 081 001 000 000 050 106 
15:40:44:2797 Rx 1 0624 s 8 042 087 081 001 000 000 050 106 
15:40:44:5786 Tx 1 0616 s 8 000 000 000 000 050 045 001 000 
15:40:44:6812 Rx 1 0624 s 8 042 087 081 001 000 000 050 106 
15:40:45:0825 Rx 1 0624 s 8 042 087 081 001 000 000 050 106 
15:40:45:3522 Tx 1 0616 s 8 000 000 000 000 050 045 001 000 
15:40:45:4839 Rx 1 0624 s 8 042 088 081 001 000 000 049 106 
15:40:45:8855 Rx 1 0624 s 8 042 088 081 001 000 000 049 106 
15:40:46:1374 Tx 1 0616 s 8 000 000 000 000 050 045 001 000 
15:40:46:2867 Rx 1 0624 s 8 042 088 081 001 000 000 049 106 
15:40:46:6881 Rx 1 0624 s 8 042 088 081 001 000 000 049 106 
15:40:46:9194 Tx 1 0616 s 8 000 000 000 000 050 045 001 000 
15:40:47:0896 Rx 1 0624 s 8 042 088 081 001 000 000 049 106 
15:40:47:4910 Rx 1 0624 s 8 042 088 081 001 000 000 049 106 
15:40:47:7158 Tx 1 0616 s 8 000 000 000 000 050 045 001 000 
15:40:47:8924 Rx 1 0624 s 8 042 088 081 001 000 000 049 106 
15:40:48:2938 Rx 1 0624 s 8 039 089 081 001 000 000 046 106 
15:40:48:4980 Tx 1 0616 s 8 000 000 000 000 050 045 001 000 
15:40:48:6952 Rx 1 0624 s 8 020 089 081 001 000 000 024 106 
15:40:49:0967 Rx 1 0624 s 8 020 089 081 001 000 000 024 106 
15:40:49:3006 Tx 1 0616 s 8 000 000 000 000 050 045 001 000 
15:40:49:4982 Rx 1 0624 s 8 020 089 081 001 000 000 024 106 
15:40:49:8995 Rx 1 0624 s 8 020 089 081 001 000 000 024 106 
15:40:50:0878 Tx 1 0616 s 8 000 000 000 000 050 045 001 000 
15:40:50:3009 Rx 1 0624 s 8 020 089 081 001 000 000 024 106 
15:40:50:7023 Rx 1 0624 s 8 020 089 081 001 000 000 024 106 
15:40:50:8583 Tx 1 0616 s 8 000 000 000 000 050 045 001 000 
15:40:51:1037 Rx 1 0624 s 8 020 089 081 001 000 000 024 106 
15:40:51:5054 Rx 1 0624 s 8 020 089 081 001 000 000 024 106 
15:40:51:6451 Tx 1 0616 s 8 000 000 000 000 050 045 001 000 
15:40:51:9065 Rx 1 0624 s 8 020 089 081 001 000 000 024 106 
15:40:52:3079 Rx 1 0624 s 8 020 089 081 001 000 000 024 106 
15:40:52:4153 Tx 1 0616 s 8 000 000 000 000 050 045 001 000 
15:40:52:7093 Rx 1 0624 s 8 020 089 081 001 000 000 024 106 
15:40:53:1107 Rx 1 0624 s 8 020 089 081 001 000 000 024 106 
15:40:53:1978 Tx 1 0616 s 8 000 000 000 000 050 045 001 000 
15:40:53:5121 Rx 1 0624 s 8 020 089 081 001 000 000 024 106 
15:40:53:9135 Rx 1 0624 s 8 020 089 081 001 000 000 024 106 
15:40:53:9794 Tx 1 0616 s 8 000 000 000 000 050 045 001 000 
15:40:54:3150 Rx 1 0624 s 8 020 089 081 001 000 000 024 106 
15:40:54:7164 Rx 1 0624 s 8 000 089 081 000 000 000 000 106 
15:40:54:7655 Tx 1 0616 s 8 000 000 000 000 050 045 001 000 
15:40:55:1178 Rx 1 0624 s 8 000 089 081 000 000 000 000 106 
15:40:55:5195 Rx 1 0624 s 8 000 089 081 000 000 000 000 106 
15:40:55:5386 Tx 1 0616 s 8 000 000 000 000 050 045 001 000 
15:40:55:9207 Rx 1 0624 s 8 000 089 081 000 000 000 000 106 
15:40:56:3220 Rx 1 0624 s 8 000 089 081 000 000 000 000 106 
15:40:56:3262 Tx 1 0616 s 8 000 000 000 000 050 045 001 000 
15:40:56:7234 Rx 1 0624 s 8 000 089 081 000 000 000 000 106 
15:40:57:1249 Rx 1 0624 s 8 000 089 081 000 000 000 000 106 
15:40:57:1331 Tx 1 0616 s 8 000 000 000 000 050 045 001 000 
15:40:57:5263 Rx 1 0624 s 8 000 089 081 000 000 000 000 106 
15:40:57:9277 Rx 1 0624 s 8 000 089 081 000 000 000 000 106 
