***BUSMASTER Ver 3.2.2***
***PROTOCOL CAN***
***NOTE: PLEASE DO NOT EDIT THIS DOCUMENT***
***[START LOGGING SESSION]***
***START DATE AND TIME 22:12:2023 13:8:45:901***
***HEX***
***SYSTEM MODE***
***START CHANNEL BAUD RATE***
***CHANNEL 1 - PCAN-USB Driver Id 16 - 500000 bps***
***END CHANNEL BAUD RATE***
***START DATABASE FILES***
***C:\Users\wpete\OneDrive\Documents\CAN\DBF\CSI_eWH70MV_Rev0.dbf***
***END DATABASE FILES***
***<Time><Tx/Rx><Channel><CAN ID><Type><DLC><DataBytes>***
13:08:45:9451 Rx 1 0x270 s 8 00 41 41 00 00 00 00 59 
13:08:46:0443 Tx 1 0x268 s 8 00 00 00 00 28 00 00 00 
13:08:46:1858 Tx 1 0x268 s 8 00 00 00 00 28 00 00 00 
13:08:46:3356 Tx 1 0x268 s 8 00 00 00 00 28 00 00 00 
13:08:46:3465 Rx 1 0x270 s 8 00 41 41 00 00 00 00 59 
13:08:46:4846 Tx 1 0x268 s 8 00 00 00 00 28 00 00 00 
13:08:46:6319 Tx 1 0x268 s 8 00 00 00 00 28 00 00 00 
13:08:46:7479 Rx 1 0x270 s 8 00 41 41 00 00 00 00 59 
13:08:46:7867 Tx 1 0x268 s 8 00 00 00 00 28 00 00 00 
13:08:46:9391 Tx 1 0x268 s 8 00 00 00 00 28 00 00 00 
13:08:47:0868 Tx 1 0x268 s 8 00 00 00 00 28 00 00 00 
13:08:47:1494 Rx 1 0x270 s 8 00 41 41 00 00 00 00 59 
13:08:47:2385 Tx 1 0x268 s 8 00 00 00 00 28 00 00 00 
13:08:47:3906 Tx 1 0x268 s 8 00 00 00 00 28 00 00 00 
13:08:47:5378 Tx 1 0x268 s 8 00 00 00 00 28 00 00 00 
13:08:47:5507 Rx 1 0x270 s 8 00 41 41 00 00 00 00 59 
13:08:47:6817 Tx 1 0x268 s 8 00 00 00 00 28 00 00 00 
13:08:47:8270 Tx 1 0x268 s 8 00 00 00 00 28 00 00 00 
13:08:47:9523 Rx 1 0x270 s 8 00 41 41 00 00 00 00 59 
13:08:47:9749 Tx 1 0x268 s 8 00 00 00 00 28 00 00 00 
13:08:48:1294 Tx 1 0x268 s 8 00 00 00 00 28 00 00 00 
13:08:48:2780 Tx 1 0x268 s 8 00 00 00 00 28 00 00 00 
13:08:48:3536 Rx 1 0x270 s 8 00 41 41 00 00 00 00 59 
13:08:48:4233 Tx 1 0x268 s 8 00 00 00 00 28 00 00 00 
13:08:48:5594 Tx 1 0x268 s 8 00 00 00 00 28 00 00 00 
13:08:48:7038 Tx 1 0x268 s 8 00 00 00 00 28 00 00 00 
13:08:48:7550 Rx 1 0x270 s 8 00 41 41 00 00 00 00 59 
13:08:48:8567 Tx 1 0x268 s 8 00 00 00 00 28 00 00 00 
13:08:49:0068 Tx 1 0x268 s 8 00 00 00 00 28 00 00 00 
13:08:49:1564 Rx 1 0x270 s 8 00 41 41 00 00 00 00 59 
13:08:49:1579 Tx 1 0x268 s 8 00 00 00 00 28 00 00 00 
13:08:49:3097 Tx 1 0x268 s 8 00 00 00 00 28 00 00 00 
13:08:49:4627 Tx 1 0x268 s 8 00 00 00 00 28 00 00 00 
13:08:49:5578 Rx 1 0x270 s 8 00 41 41 00 00 00 00 59 
13:08:49:6101 Tx 1 0x268 s 8 00 00 00 00 28 00 00 00 
13:08:49:7603 Tx 1 0x268 s 8 00 00 00 00 28 00 00 00 
13:08:49:9203 Tx 1 0x268 s 8 00 00 00 00 28 28 00 00 
13:08:49:9592 Rx 1 0x270 s 8 00 41 41 00 00 00 00 59 
13:08:50:0742 Tx 1 0x268 s 8 00 00 00 00 28 28 00 00 
13:08:50:2262 Tx 1 0x268 s 8 00 00 00 00 28 28 00 00 
13:08:50:3607 Rx 1 0x270 s 8 00 41 41 00 00 00 00 59 
13:08:50:3752 Tx 1 0x268 s 8 00 00 00 00 28 28 00 00 
13:08:50:5261 Tx 1 0x268 s 8 00 00 00 00 28 28 00 00 
13:08:50:6768 Tx 1 0x268 s 8 00 00 00 00 28 28 00 00 
13:08:50:7622 Rx 1 0x270 s 8 00 41 41 00 00 00 00 59 
13:08:50:8368 Tx 1 0x268 s 8 00 00 00 00 28 28 00 00 
13:08:50:9978 Tx 1 0x268 s 8 00 00 00 00 28 28 00 00 
13:08:51:1558 Tx 1 0x268 s 8 00 00 00 00 28 28 00 00 
13:08:51:1634 Rx 1 0x270 s 8 00 41 41 00 00 00 00 59 
13:08:51:3118 Tx 1 0x268 s 8 00 00 00 00 28 28 00 00 
13:08:51:4647 Tx 1 0x268 s 8 00 00 00 00 28 28 00 00 
13:08:51:5648 Rx 1 0x270 s 8 00 41 41 00 00 00 00 59 
13:08:51:6193 Tx 1 0x268 s 8 00 00 00 00 28 28 00 00 
13:08:51:7703 Tx 1 0x268 s 8 00 00 00 00 28 28 00 00 
13:08:51:9245 Tx 1 0x268 s 8 00 00 00 00 28 28 00 00 
13:08:51:9664 Rx 1 0x270 s 8 00 41 41 00 00 00 00 59 
13:08:52:0774 Tx 1 0x268 s 8 00 00 00 00 28 28 00 00 
13:08:52:2235 Tx 1 0x268 s 8 00 00 00 00 28 28 00 00 
13:08:52:3676 Rx 1 0x270 s 8 00 41 41 00 00 00 00 59 
13:08:52:3744 Tx 1 0x268 s 8 00 00 00 00 28 28 00 00 
13:08:52:5229 Tx 1 0x268 s 8 00 00 00 00 28 28 00 00 
13:08:52:6812 Tx 1 0x268 s 8 00 00 00 00 28 28 00 00 
13:08:52:7690 Rx 1 0x270 s 8 00 41 41 00 00 00 00 59 
13:08:52:8373 Tx 1 0x268 s 8 00 00 00 00 28 28 00 00 
13:08:52:9942 Tx 1 0x268 s 8 00 00 00 00 28 28 00 00 
13:08:53:1504 Tx 1 0x268 s 8 00 00 00 00 28 28 00 00 
13:08:53:1705 Rx 1 0x270 s 8 00 41 41 00 00 00 00 59 
13:08:53:3063 Tx 1 0x268 s 8 00 00 00 00 28 28 00 00 
13:08:53:4663 Tx 1 0x268 s 8 00 00 00 00 28 28 00 00 
13:08:53:5719 Rx 1 0x270 s 8 00 41 41 00 00 00 00 59 
13:08:53:6161 Tx 1 0x268 s 8 00 00 00 00 28 28 00 00 
13:08:53:7701 Tx 1 0x268 s 8 00 00 00 00 28 28 00 00 
13:08:53:9183 Tx 1 0x268 s 8 00 00 00 00 28 28 00 00 
13:08:53:9733 Rx 1 0x270 s 8 00 41 41 00 00 00 00 59 
13:08:54:0734 Tx 1 0x268 s 8 00 00 00 00 28 28 00 00 
13:08:54:2233 Tx 1 0x268 s 8 00 00 00 00 28 28 00 00 
13:08:54:3747 Rx 1 0x270 s 8 00 41 41 00 00 00 00 59 
13:08:54:3774 Tx 1 0x268 s 8 00 00 00 00 28 28 00 00 
13:08:54:5307 Tx 1 0x268 s 8 00 00 00 00 28 28 00 00 
13:08:54:6810 Tx 1 0x268 s 8 00 00 00 00 28 28 00 00 
13:08:54:7763 Rx 1 0x270 s 8 00 41 41 00 00 00 00 59 
13:08:54:8309 Tx 1 0x268 s 8 00 00 00 00 28 28 00 00 
13:08:54:9909 Tx 1 0x268 s 8 00 00 00 00 28 28 00 00 
13:08:55:1469 Tx 1 0x268 s 8 00 00 00 00 28 28 00 00 
13:08:55:1776 Rx 1 0x270 s 8 00 41 41 00 00 00 00 59 
13:08:55:3019 Tx 1 0x268 s 8 00 00 00 00 28 28 00 00 
13:08:55:4589 Tx 1 0x268 s 8 00 00 00 00 28 28 00 00 
13:08:55:5790 Rx 1 0x270 s 8 00 41 41 00 00 00 00 59 
13:08:55:6125 Tx 1 0x268 s 8 00 00 00 00 28 28 00 00 
13:08:55:7695 Tx 1 0x268 s 8 00 00 00 00 28 28 00 00 
13:08:55:9214 Tx 1 0x268 s 8 00 00 00 00 28 28 00 00 
13:08:55:9806 Rx 1 0x270 s 8 00 41 41 00 00 00 00 59 
13:08:56:0834 Tx 1 0x268 s 8 00 00 00 00 28 28 00 00 
13:08:56:2285 Tx 1 0x268 s 8 00 00 00 00 28 28 00 00 
13:08:56:3818 Rx 1 0x270 s 8 00 41 41 00 00 00 00 59 
13:08:56:3884 Tx 1 0x268 s 8 00 00 00 00 28 28 00 00 
13:08:56:5409 Tx 1 0x268 s 8 00 00 00 00 28 28 00 00 
13:08:56:6901 Tx 1 0x268 s 8 00 00 00 00 28 28 00 00 
13:08:56:7833 Rx 1 0x270 s 8 00 41 41 00 00 00 00 59 
13:08:56:8409 Tx 1 0x268 s 8 00 00 00 00 28 28 00 00 
13:08:56:9949 Tx 1 0x268 s 8 00 00 00 00 28 28 00 00 
13:08:57:1519 Tx 1 0x268 s 8 00 00 00 00 28 28 00 00 
13:08:57:1847 Rx 1 0x270 s 8 00 41 41 00 00 00 00 59 
13:08:57:3079 Tx 1 0x268 s 8 00 00 00 00 28 28 00 00 
13:08:57:4619 Tx 1 0x268 s 8 00 00 00 00 28 28 00 00 
13:08:57:5861 Rx 1 0x270 s 8 00 41 41 00 00 00 00 59 
13:08:57:6166 Tx 1 0x268 s 8 00 00 00 00 28 28 00 00 
13:08:57:7725 Tx 1 0x268 s 8 00 00 00 00 28 28 01 00 
13:08:57:9196 Tx 1 0x268 s 8 00 00 00 00 28 28 01 00 
13:08:57:9875 Rx 1 0x270 s 8 00 41 41 01 00 00 00 59 
13:08:58:0686 Tx 1 0x268 s 8 00 00 00 00 28 28 01 00 
13:08:58:2196 Tx 1 0x268 s 8 00 00 00 00 28 28 01 00 
13:08:58:3737 Tx 1 0x268 s 8 00 00 00 00 28 28 01 00 
13:08:58:3889 Rx 1 0x270 s 8 00 41 41 01 00 00 00 59 
13:08:58:5264 Tx 1 0x268 s 8 00 00 00 00 28 28 01 00 
13:08:58:6734 Tx 1 0x268 s 8 00 00 00 00 28 28 01 00 
13:08:58:7903 Rx 1 0x270 s 8 16 41 41 01 00 00 1F 59 
13:08:58:8236 Tx 1 0x268 s 8 00 00 00 00 28 28 01 00 
13:08:58:9766 Tx 1 0x268 s 8 00 00 00 00 28 28 01 00 
13:08:59:1326 Tx 1 0x268 s 8 00 00 00 00 28 28 01 00 
13:08:59:1919 Rx 1 0x270 s 8 1B 41 41 01 00 00 26 59 
13:08:59:2906 Tx 1 0x268 s 8 00 00 00 00 28 28 01 00 
13:08:59:4486 Tx 1 0x268 s 8 00 00 00 00 28 28 01 00 
13:08:59:5932 Rx 1 0x270 s 8 1B 41 41 01 00 00 26 59 
13:08:59:6052 Tx 1 0x268 s 8 00 00 00 00 28 28 01 00 
13:08:59:7551 Tx 1 0x268 s 8 00 00 00 00 28 28 01 00 
13:08:59:9124 Tx 1 0x268 s 8 00 00 00 00 28 28 01 00 
13:08:59:9946 Rx 1 0x270 s 8 1F 41 41 01 00 00 2B 59 
13:09:00:0632 Tx 1 0x268 s 8 00 00 00 00 28 28 01 00 
13:09:00:2131 Tx 1 0x268 s 8 00 00 00 00 28 28 01 00 
13:09:00:3662 Tx 1 0x268 s 8 00 00 00 00 28 28 01 00 
13:09:00:3960 Rx 1 0x270 s 8 23 41 41 01 00 00 31 59 
13:09:00:5192 Tx 1 0x268 s 8 00 00 00 00 28 28 01 00 
13:09:00:6700 Tx 1 0x268 s 8 00 00 00 00 28 28 01 00 
13:09:00:7974 Rx 1 0x270 s 8 27 41 41 01 00 00 37 59 
13:09:00:8259 Tx 1 0x268 s 8 00 00 00 00 28 28 01 00 
13:09:00:9849 Tx 1 0x268 s 8 00 00 00 00 28 28 01 00 
13:09:01:1389 Tx 1 0x268 s 8 00 00 00 00 28 28 01 00 
13:09:01:1990 Rx 1 0x270 s 8 2B 41 41 01 00 00 3C 59 
13:09:01:2940 Tx 1 0x268 s 8 00 00 00 00 28 28 01 00 
13:09:01:4520 Tx 1 0x268 s 8 00 00 00 00 28 28 01 00 
13:09:01:6003 Rx 1 0x270 s 8 2B 41 41 01 00 00 3C 59 
13:09:01:6012 Tx 1 0x268 s 8 00 00 00 00 28 28 01 00 
13:09:01:7572 Tx 1 0x268 s 8 00 00 00 00 28 28 01 00 
13:09:01:9072 Tx 1 0x268 s 8 00 00 00 00 28 28 01 00 
13:09:02:0016 Rx 1 0x270 s 8 2D 41 41 01 00 00 40 59 
13:09:02:0672 Tx 1 0x268 s 8 00 00 00 00 28 28 01 00 
13:09:02:2232 Tx 1 0x268 s 8 00 00 00 00 28 28 01 00 
13:09:02:3774 Tx 1 0x268 s 8 00 00 00 00 28 28 01 00 
13:09:02:4031 Rx 1 0x270 s 8 2E 41 41 01 00 00 41 59 
13:09:02:5363 Tx 1 0x268 s 8 00 00 00 00 28 28 01 00 
13:09:02:6801 Tx 1 0x268 s 8 00 00 00 00 28 28 01 00 
13:09:02:8045 Rx 1 0x270 s 8 2E 41 41 01 00 00 40 59 
13:09:02:8430 Tx 1 0x268 s 8 00 00 00 00 28 28 01 00 
13:09:03:0002 Tx 1 0x268 s 8 00 00 00 00 28 28 01 00 
13:09:03:1539 Tx 1 0x268 s 8 00 00 00 00 28 28 01 00 
13:09:03:2059 Rx 1 0x270 s 8 2C 41 41 01 00 00 3E 59 
13:09:03:3089 Tx 1 0x268 s 8 00 00 00 00 28 28 01 00 
13:09:03:4600 Tx 1 0x268 s 8 00 00 00 00 28 28 01 00 
13:09:03:6073 Rx 1 0x270 s 8 2C 41 41 01 00 00 3E 59 
13:09:03:6077 Tx 1 0x268 s 8 00 00 00 00 28 28 01 00 
13:09:03:7635 Tx 1 0x268 s 8 00 00 00 00 28 28 01 00 
13:09:03:9118 Tx 1 0x268 s 8 00 00 00 00 28 28 01 00 
13:09:04:0089 Rx 1 0x270 s 8 2A 41 41 01 00 00 3B 59 
13:09:04:0668 Tx 1 0x268 s 8 00 00 00 00 28 28 01 00 
13:09:04:2189 Tx 1 0x268 s 8 00 00 00 00 28 28 01 00 
13:09:04:3753 Tx 1 0x268 s 8 00 00 00 00 28 28 01 00 
13:09:04:4101 Rx 1 0x270 s 8 28 41 41 01 00 00 38 59 
13:09:04:5347 Tx 1 0x268 s 8 00 00 00 00 28 28 01 00 
13:09:04:6785 Tx 1 0x268 s 8 00 00 00 00 28 28 01 00 
13:09:04:8117 Rx 1 0x270 s 8 26 41 41 01 00 00 35 59 
13:09:04:8364 Tx 1 0x268 s 8 00 00 00 00 28 28 01 00 
13:09:04:9883 Tx 1 0x268 s 8 00 00 00 00 28 28 01 00 
13:09:05:1407 Tx 1 0x268 s 8 00 00 00 00 28 28 01 00 
13:09:05:2130 Rx 1 0x270 s 8 24 41 41 01 00 00 32 59 
13:09:05:2891 Tx 1 0x268 s 8 00 00 00 00 28 28 01 00 
13:09:05:4411 Tx 1 0x268 s 8 00 00 00 00 28 28 01 00 
13:09:05:5955 Tx 1 0x268 s 8 00 00 00 00 28 28 01 00 
13:09:05:6144 Rx 1 0x270 s 8 24 41 41 01 00 00 32 59 
13:09:05:7467 Tx 1 0x268 s 8 00 00 00 00 28 28 01 00 
13:09:05:9017 Tx 1 0x268 s 8 00 00 00 00 28 28 01 00 
13:09:06:0158 Rx 1 0x270 s 8 22 41 41 01 00 00 2F 59 
13:09:06:0577 Tx 1 0x268 s 8 00 00 00 00 28 28 01 00 
13:09:06:2083 Tx 1 0x268 s 8 00 00 00 00 28 28 01 00 
13:09:06:3765 Tx 1 0x268 s 8 00 00 00 00 28 28 01 00 
13:09:06:4172 Rx 1 0x270 s 8 20 41 41 01 00 00 2D 59 
13:09:06:5327 Tx 1 0x268 s 8 00 00 00 00 28 28 01 00 
13:09:06:6795 Tx 1 0x268 s 8 00 00 00 00 28 28 01 00 
13:09:06:8186 Rx 1 0x270 s 8 1E 41 41 01 00 00 2B 59 
13:09:06:8336 Tx 1 0x268 s 8 00 00 00 00 28 28 01 00 
13:09:06:9896 Tx 1 0x268 s 8 00 00 00 00 28 28 01 00 
13:09:07:1414 Tx 1 0x268 s 8 00 00 00 00 28 28 01 00 
13:09:07:2200 Rx 1 0x270 s 8 1D 41 41 01 00 00 29 59 
13:09:07:2925 Tx 1 0x268 s 8 00 00 00 00 28 28 01 00 
13:09:07:4484 Tx 1 0x268 s 8 00 00 00 00 28 28 01 00 
13:09:07:6070 Tx 1 0x268 s 8 00 00 00 00 28 28 01 00 
13:09:07:6216 Rx 1 0x270 s 8 1D 41 41 01 00 00 29 59 
13:09:07:7645 Tx 1 0x268 s 8 00 00 00 00 28 28 01 00 
13:09:07:9225 Tx 1 0x268 s 8 00 00 00 00 28 28 01 00 
13:09:08:0230 Rx 1 0x270 s 8 1C 41 41 01 00 00 27 59 
13:09:08:0785 Tx 1 0x268 s 8 00 00 00 00 28 28 01 00 
13:09:08:2315 Tx 1 0x268 s 8 00 00 00 00 28 28 01 00 
13:09:08:3875 Tx 1 0x268 s 8 00 00 00 00 28 28 01 00 
13:09:08:4244 Rx 1 0x270 s 8 1B 41 41 01 00 00 26 59 
13:09:08:5386 Tx 1 0x268 s 8 00 00 00 00 28 28 01 00 
13:09:08:6920 Tx 1 0x268 s 8 00 00 00 00 28 28 01 00 
13:09:08:8257 Rx 1 0x270 s 8 1A 41 41 01 00 00 25 59 
13:09:08:8505 Tx 1 0x268 s 8 00 00 00 00 28 28 01 00 
13:09:09:0036 Tx 1 0x268 s 8 00 00 00 00 28 28 01 00 
13:09:09:1602 Tx 1 0x268 s 8 00 00 00 00 28 28 01 00 
13:09:09:2271 Rx 1 0x270 s 8 1A 41 41 01 00 00 25 59 
13:09:09:3183 Tx 1 0x268 s 8 00 00 00 00 28 28 01 00 
13:09:09:4752 Tx 1 0x268 s 8 00 00 00 00 28 28 01 00 
13:09:09:6253 Tx 1 0x268 s 8 00 00 00 00 28 28 01 00 
13:09:09:6285 Rx 1 0x270 s 8 1A 41 41 01 00 00 25 59 
13:09:09:7799 Tx 1 0x268 s 8 00 00 00 00 28 28 01 00 
13:09:09:9309 Tx 1 0x268 s 8 00 00 00 00 28 28 01 00 
13:09:10:0300 Rx 1 0x270 s 8 1A 42 41 01 00 00 24 59 
13:09:10:0870 Tx 1 0x268 s 8 00 00 00 00 28 28 01 00 
13:09:10:2339 Tx 1 0x268 s 8 00 00 00 00 28 28 01 00 
13:09:10:3889 Tx 1 0x268 s 8 00 00 00 00 28 28 01 00 
13:09:10:4314 Rx 1 0x270 s 8 19 42 41 01 00 00 24 59 
13:09:10:5358 Tx 1 0x268 s 8 00 00 00 00 28 28 01 00 
13:09:10:6904 Tx 1 0x268 s 8 00 00 00 00 28 28 01 00 
13:09:10:8327 Rx 1 0x270 s 8 19 42 41 01 00 00 24 59 
13:09:10:8455 Tx 1 0x268 s 8 00 00 00 00 28 28 01 00 
13:09:10:9995 Tx 1 0x268 s 8 00 00 00 00 28 28 01 00 
13:09:11:1515 Tx 1 0x268 s 8 00 00 00 00 28 28 01 00 
13:09:11:2341 Rx 1 0x270 s 8 19 42 41 01 00 00 23 59 
13:09:11:2994 Tx 1 0x268 s 8 00 00 00 00 28 28 01 00 
13:09:11:4514 Tx 1 0x268 s 8 00 00 00 00 28 28 01 00 
13:09:11:6061 Tx 1 0x268 s 8 00 00 00 00 28 28 01 00 
13:09:11:6355 Rx 1 0x270 s 8 19 42 41 01 00 00 23 59 
13:09:11:7561 Tx 1 0x268 s 8 00 00 00 00 28 28 01 00 
13:09:11:9051 Tx 1 0x268 s 8 00 00 00 00 28 28 01 00 
13:09:12:0370 Rx 1 0x270 s 8 19 42 41 01 00 00 23 59 
13:09:12:0572 Tx 1 0x268 s 8 00 00 00 00 28 28 01 00 
13:09:12:2202 Tx 1 0x268 s 8 00 00 00 00 28 28 01 00 
13:09:12:3742 Tx 1 0x268 s 8 00 00 00 00 28 28 01 00 
13:09:12:4384 Rx 1 0x270 s 8 19 42 41 01 00 00 23 59 
13:09:12:5290 Tx 1 0x268 s 8 00 00 00 00 28 28 01 00 
13:09:12:6817 Tx 1 0x268 s 8 00 00 00 00 28 28 01 00 
13:09:12:8327 Tx 1 0x268 s 8 00 00 00 00 28 28 01 00 
13:09:12:8398 Rx 1 0x270 s 8 19 42 41 01 00 00 23 59 
13:09:12:9897 Tx 1 0x268 s 8 00 00 00 00 28 28 01 00 
13:09:13:1427 Tx 1 0x268 s 8 00 00 00 00 28 28 01 00 
13:09:13:2412 Rx 1 0x270 s 8 19 42 41 01 00 00 23 59 
13:09:13:2954 Tx 1 0x268 s 8 00 00 00 00 28 28 01 00 
13:09:13:4484 Tx 1 0x268 s 8 00 00 00 00 28 28 01 00 
13:09:13:6005 Tx 1 0x268 s 8 00 00 00 00 28 28 01 00 
13:09:13:6428 Rx 1 0x270 s 8 19 42 41 01 00 00 23 59 
13:09:13:7552 Tx 1 0x268 s 8 00 00 00 00 28 28 01 00 
13:09:13:9133 Tx 1 0x268 s 8 00 00 00 00 28 28 01 00 
13:09:14:0441 Rx 1 0x270 s 8 18 42 41 01 00 00 22 59 
13:09:14:0613 Tx 1 0x268 s 8 00 00 00 00 28 28 01 00 
13:09:14:2184 Tx 1 0x268 s 8 00 00 00 00 28 28 01 00 
13:09:14:3723 Tx 1 0x268 s 8 00 00 00 00 28 28 01 00 
13:09:14:4457 Rx 1 0x270 s 8 18 42 41 01 00 00 22 59 
13:09:14:5323 Tx 1 0x268 s 8 00 00 00 00 28 28 01 00 
13:09:14:6865 Tx 1 0x268 s 8 00 00 00 00 28 28 01 00 
13:09:14:8415 Tx 1 0x268 s 8 00 00 00 00 28 28 01 00 
13:09:14:8469 Rx 1 0x270 s 8 18 42 41 01 00 00 22 59 
13:09:15:0035 Tx 1 0x268 s 8 00 00 00 00 28 28 01 00 
13:09:15:1588 Tx 1 0x268 s 8 00 00 00 00 28 28 01 00 
13:09:15:2484 Rx 1 0x270 s 8 18 42 41 01 00 00 22 59 
13:09:15:3187 Tx 1 0x268 s 8 00 00 00 00 28 28 01 00 
13:09:15:4697 Tx 1 0x268 s 8 00 00 00 00 28 28 01 00 
13:09:15:6283 Tx 1 0x268 s 8 00 00 00 00 28 28 01 00 
13:09:15:6497 Rx 1 0x270 s 8 18 42 41 01 00 00 22 59 
13:09:15:7864 Tx 1 0x268 s 8 00 00 00 00 28 28 01 00 
13:09:15:9386 Tx 1 0x268 s 8 00 00 00 00 28 28 01 00 
13:09:16:0511 Rx 1 0x270 s 8 18 42 41 01 00 00 22 59 
13:09:16:0986 Tx 1 0x268 s 8 00 00 00 00 28 28 01 00 
13:09:16:2587 Tx 1 0x268 s 8 00 00 00 00 28 28 01 00 
13:09:16:4156 Tx 1 0x268 s 8 00 00 00 00 28 28 01 00 
13:09:16:4525 Rx 1 0x270 s 8 18 42 41 01 00 00 22 59 
13:09:16:5757 Tx 1 0x268 s 8 00 00 00 00 28 28 01 00 
13:09:16:7223 Tx 1 0x268 s 8 00 00 00 00 28 28 01 00 
13:09:16:8539 Rx 1 0x270 s 8 18 42 41 01 00 00 22 59 
13:09:16:8742 Tx 1 0x268 s 8 00 00 00 00 28 28 01 00 
13:09:17:0284 Tx 1 0x268 s 8 00 00 00 00 28 28 01 00 
13:09:17:1884 Tx 1 0x268 s 8 00 00 00 00 28 28 01 00 
13:09:17:2553 Rx 1 0x270 s 8 18 42 41 01 00 00 22 59 
13:09:17:3407 Tx 1 0x268 s 8 00 00 00 00 28 28 01 00 
13:09:17:4917 Tx 1 0x268 s 8 00 00 00 00 28 28 01 00 
13:09:17:6470 Tx 1 0x268 s 8 00 00 00 00 28 28 01 00 
13:09:17:6567 Rx 1 0x270 s 8 18 42 41 01 00 00 22 59 
13:09:17:7964 Tx 1 0x268 s 8 00 00 00 00 28 28 01 00 
13:09:17:9513 Tx 1 0x268 s 8 00 00 00 00 28 28 01 00 
13:09:18:0582 Rx 1 0x270 s 8 18 42 41 01 00 00 22 59 
13:09:18:1094 Tx 1 0x268 s 8 00 00 00 00 28 28 01 00 
13:09:18:2704 Tx 1 0x268 s 8 00 00 00 00 28 28 01 00 
13:09:18:4174 Tx 1 0x268 s 8 00 00 00 00 28 28 01 00 
13:09:18:4596 Rx 1 0x270 s 8 18 42 41 01 00 00 22 59 
13:09:18:5774 Tx 1 0x268 s 8 00 00 00 00 28 28 01 00 
13:09:18:7320 Tx 1 0x268 s 8 00 00 00 00 28 28 01 00 
13:09:18:8610 Rx 1 0x270 s 8 18 42 41 01 00 00 22 59 
13:09:18:8778 Tx 1 0x268 s 8 00 00 00 00 28 28 01 00 
13:09:19:0207 Tx 1 0x268 s 8 00 00 00 00 28 28 01 00 
13:09:19:1696 Tx 1 0x268 s 8 00 00 00 00 28 28 01 00 
13:09:19:2624 Rx 1 0x270 s 8 18 42 41 01 00 00 22 59 
13:09:19:3122 Tx 1 0x268 s 8 00 00 00 00 28 28 01 00 
13:09:19:4610 Tx 1 0x268 s 8 00 00 00 00 28 28 01 00 
13:09:19:6105 Tx 1 0x268 s 8 00 00 00 00 28 28 01 00 
13:09:19:6638 Rx 1 0x270 s 8 18 43 41 01 00 00 22 59 
13:09:19:7507 Tx 1 0x268 s 8 00 00 00 00 28 28 01 00 
13:09:19:9065 Tx 1 0x268 s 8 00 00 00 00 28 28 01 00 
13:09:20:0618 Tx 1 0x268 s 8 00 00 00 00 28 28 01 00 
13:09:20:0652 Rx 1 0x270 s 8 18 43 41 01 00 00 22 59 
13:09:20:2050 Tx 1 0x268 s 8 00 00 00 00 28 28 01 00 
13:09:20:3534 Tx 1 0x268 s 8 00 00 00 00 28 28 01 00 
13:09:20:4668 Rx 1 0x270 s 8 18 43 41 01 00 00 22 59 
13:09:20:4975 Tx 1 0x268 s 8 00 00 00 00 28 28 01 00 
13:09:20:6426 Tx 1 0x268 s 8 00 00 00 00 28 28 01 00 
13:09:20:7821 Tx 1 0x268 s 8 00 00 00 00 28 28 01 00 
13:09:20:8681 Rx 1 0x270 s 8 18 43 41 01 00 00 22 59 
13:09:20:9288 Tx 1 0x268 s 8 00 00 00 00 28 28 01 00 
13:09:21:0781 Tx 1 0x268 s 8 00 00 00 00 28 28 01 00 
13:09:21:2244 Tx 1 0x268 s 8 00 00 00 00 28 28 01 00 
13:09:21:2697 Rx 1 0x270 s 8 18 43 41 01 00 00 22 59 
13:09:21:3767 Tx 1 0x268 s 8 00 00 00 00 28 28 01 00 
13:09:21:5285 Tx 1 0x268 s 8 00 00 00 00 28 28 01 00 
13:09:21:6710 Rx 1 0x270 s 8 18 43 41 01 00 00 22 59 
13:09:21:6745 Tx 1 0x268 s 8 00 00 00 00 28 28 01 00 
13:09:21:8227 Tx 1 0x268 s 8 00 00 00 00 28 28 01 00 
13:09:21:9701 Tx 1 0x268 s 8 00 00 00 00 28 28 01 00 
13:09:22:0723 Rx 1 0x270 s 8 18 43 41 01 00 00 22 59 
13:09:22:1114 Tx 1 0x268 s 8 00 00 00 00 28 28 01 00 
13:09:22:2602 Tx 1 0x268 s 8 00 00 00 00 28 28 01 00 
13:09:22:4139 Tx 1 0x268 s 8 00 00 00 00 28 28 01 00 
13:09:22:4738 Rx 1 0x270 s 8 18 43 41 01 00 00 22 59 
13:09:22:5616 Tx 1 0x268 s 8 00 00 00 00 28 28 01 00 
13:09:22:7032 Tx 1 0x268 s 8 00 00 00 00 28 28 01 00 
13:09:22:8492 Tx 1 0x268 s 8 00 00 00 00 28 28 01 00 
13:09:22:8753 Rx 1 0x270 s 8 18 43 41 01 00 00 22 59 
13:09:22:9987 Tx 1 0x268 s 8 00 00 00 00 28 28 01 00 
13:09:23:1489 Tx 1 0x268 s 8 00 00 00 00 28 28 01 00 
13:09:23:2766 Rx 1 0x270 s 8 18 43 41 01 00 00 22 59 
13:09:23:3033 Tx 1 0x268 s 8 00 00 00 00 28 28 01 00 
13:09:23:4481 Tx 1 0x268 s 8 00 00 00 00 28 28 01 00 
13:09:23:5916 Tx 1 0x268 s 8 00 00 00 00 28 28 01 00 
13:09:23:6780 Rx 1 0x270 s 8 18 43 41 01 00 00 22 59 
13:09:23:7411 Tx 1 0x268 s 8 00 00 00 00 28 28 01 00 
13:09:23:8817 Tx 1 0x268 s 8 00 00 00 00 28 28 01 00 
13:09:24:0246 Tx 1 0x268 s 8 00 00 00 00 28 28 01 00 
13:09:24:0794 Rx 1 0x270 s 8 18 43 41 01 00 00 22 59 
13:09:24:1701 Tx 1 0x268 s 8 00 00 00 00 28 28 01 00 
13:09:24:3156 Tx 1 0x268 s 8 00 00 00 00 28 28 01 00 
13:09:24:4623 Tx 1 0x268 s 8 00 00 00 00 28 28 01 00 
13:09:24:4809 Rx 1 0x270 s 8 18 43 41 01 00 00 22 59 
13:09:24:6059 Tx 1 0x268 s 8 00 00 00 00 28 28 01 00 
13:09:24:7501 Tx 1 0x268 s 8 00 00 00 00 28 28 01 00 
13:09:24:8824 Rx 1 0x270 s 8 18 43 41 01 00 00 22 59 
13:09:24:9069 Tx 1 0x268 s 8 00 00 00 00 28 28 01 00 
13:09:25:0567 Tx 1 0x268 s 8 00 00 00 00 28 28 01 00 
13:09:25:2110 Tx 1 0x268 s 8 00 00 00 00 28 28 01 00 
13:09:25:2837 Rx 1 0x270 s 8 18 43 41 01 00 00 22 59 
13:09:25:3619 Tx 1 0x268 s 8 00 00 00 00 28 28 01 00 
13:09:25:5110 Tx 1 0x268 s 8 00 00 00 00 28 28 01 00 
13:09:25:6540 Tx 1 0x268 s 8 00 00 00 00 28 28 01 00 
13:09:25:6851 Rx 1 0x270 s 8 18 43 41 01 00 00 22 59 
13:09:25:7988 Tx 1 0x268 s 8 00 00 00 00 28 28 01 00 
13:09:25:9407 Tx 1 0x268 s 8 00 00 00 00 28 28 01 00 
13:09:26:0865 Rx 1 0x270 s 8 18 43 41 01 00 00 22 59 
13:09:26:0904 Tx 1 0x268 s 8 00 00 00 00 28 28 01 00 
13:09:26:2366 Tx 1 0x268 s 8 00 00 00 00 28 28 01 00 
13:09:26:3805 Tx 1 0x268 s 8 00 00 00 00 28 28 01 00 
13:09:26:4880 Rx 1 0x270 s 8 18 43 41 01 00 00 22 59 
13:09:26:5279 Tx 1 0x268 s 8 00 00 00 00 28 28 01 00 
13:09:26:6732 Tx 1 0x268 s 8 00 00 00 00 28 28 01 00 
13:09:26:8146 Tx 1 0x268 s 8 00 00 00 00 28 28 01 00 
13:09:26:8894 Rx 1 0x270 s 8 18 43 41 01 00 00 22 59 
13:09:26:9562 Tx 1 0x268 s 8 00 00 00 00 28 28 01 00 
13:09:27:1056 Tx 1 0x268 s 8 00 00 00 00 28 28 01 00 
13:09:27:2524 Tx 1 0x268 s 8 00 00 00 00 28 28 01 00 
13:09:27:2907 Rx 1 0x270 s 8 18 43 41 01 00 00 22 59 
13:09:27:3998 Tx 1 0x268 s 8 00 00 00 00 28 28 01 00 
13:09:27:5454 Tx 1 0x268 s 8 00 00 00 00 28 28 01 00 
13:09:27:6901 Tx 1 0x268 s 8 00 00 00 00 28 28 01 00 
13:09:27:6921 Rx 1 0x270 s 8 18 43 41 01 00 00 22 59 
13:09:27:8352 Tx 1 0x268 s 8 00 00 00 00 28 28 01 00 
13:09:27:9933 Tx 1 0x268 s 8 00 00 00 00 28 28 01 00 
13:09:28:0937 Rx 1 0x270 s 8 18 43 41 01 00 00 22 59 
13:09:28:1361 Tx 1 0x268 s 8 00 00 00 00 28 28 01 00 
13:09:28:2775 Tx 1 0x268 s 8 00 00 00 00 28 28 01 00 
13:09:28:4273 Tx 1 0x268 s 8 00 00 00 00 28 28 01 00 
13:09:28:4951 Rx 1 0x270 s 8 18 43 41 01 00 00 22 59 
13:09:28:5768 Tx 1 0x268 s 8 00 00 00 00 28 28 01 00 
13:09:28:7166 Tx 1 0x268 s 8 00 00 00 00 28 28 01 00 
13:09:28:8564 Tx 1 0x268 s 8 00 00 00 00 28 28 01 00 
13:09:28:8967 Rx 1 0x270 s 8 18 43 41 01 00 00 22 59 
13:09:29:0015 Tx 1 0x268 s 8 00 00 00 00 28 28 01 00 
13:09:29:1455 Tx 1 0x268 s 8 00 00 00 00 28 28 01 00 
13:09:29:2865 Tx 1 0x268 s 8 00 00 00 00 28 28 01 00 
13:09:29:2978 Rx 1 0x270 s 8 18 43 41 01 00 00 22 59 
13:09:29:4277 Tx 1 0x268 s 8 00 00 00 00 28 28 01 00 
13:09:29:5744 Tx 1 0x268 s 8 00 00 00 00 28 28 01 00 
13:09:29:6994 Rx 1 0x270 s 8 18 43 41 01 00 00 22 59 
13:09:29:7207 Tx 1 0x268 s 8 00 00 00 00 28 28 01 00 
13:09:29:8702 Tx 1 0x268 s 8 00 00 00 00 28 28 01 00 
13:09:30:0096 Tx 1 0x268 s 8 00 00 00 00 28 28 01 00 
13:09:30:1007 Rx 1 0x270 s 8 18 43 41 01 00 00 22 59 
13:09:30:1520 Tx 1 0x268 s 8 00 00 00 00 28 28 01 00 
13:09:30:3037 Tx 1 0x268 s 8 00 00 00 00 28 28 01 00 
13:09:30:4562 Tx 1 0x268 s 8 00 00 00 00 28 28 01 00 
13:09:30:5021 Rx 1 0x270 s 8 18 43 41 01 00 00 22 59 
13:09:30:6020 Tx 1 0x268 s 8 00 00 00 00 28 28 01 00 
13:09:30:7512 Tx 1 0x268 s 8 00 00 00 00 28 28 01 00 
13:09:30:8969 Tx 1 0x268 s 8 00 00 00 00 28 28 01 00 
13:09:30:9035 Rx 1 0x270 s 8 18 43 41 01 00 00 22 59 
13:09:31:0474 Tx 1 0x268 s 8 00 00 00 00 28 28 01 00 
13:09:31:1938 Tx 1 0x268 s 8 00 00 00 00 28 28 01 00 
13:09:31:3049 Rx 1 0x270 s 8 18 43 41 01 00 00 22 59 
13:09:31:3412 Tx 1 0x268 s 8 00 00 00 00 28 28 01 00 
13:09:31:4950 Tx 1 0x268 s 8 00 00 00 00 28 28 01 00 
13:09:31:6444 Tx 1 0x268 s 8 00 00 00 00 28 28 01 00 
13:09:31:7065 Rx 1 0x270 s 8 18 43 41 01 00 00 22 59 
13:09:31:7895 Tx 1 0x268 s 8 00 00 00 00 28 28 01 00 
13:09:31:9417 Tx 1 0x268 s 8 00 00 00 00 28 28 01 00 
13:09:32:0864 Tx 1 0x268 s 8 00 00 00 00 28 28 01 00 
13:09:32:1077 Rx 1 0x270 s 8 18 43 41 01 00 00 22 59 
13:09:32:2347 Tx 1 0x268 s 8 00 00 00 00 28 28 01 00 
13:09:32:3819 Tx 1 0x268 s 8 00 00 00 00 28 28 01 00 
13:09:32:5093 Rx 1 0x270 s 8 18 43 41 01 00 00 22 59 
13:09:32:5215 Tx 1 0x268 s 8 00 00 00 00 28 28 01 00 
13:09:32:6673 Tx 1 0x268 s 8 00 00 00 00 28 28 01 00 
13:09:32:8096 Tx 1 0x268 s 8 00 00 00 00 28 28 01 00 
13:09:32:9105 Rx 1 0x270 s 8 18 43 41 01 00 00 22 59 
13:09:32:9592 Tx 1 0x268 s 8 00 00 00 00 28 28 01 00 
13:09:33:1103 Tx 1 0x268 s 8 00 00 00 00 28 28 01 00 
13:09:33:2585 Tx 1 0x268 s 8 00 00 00 00 28 28 01 00 
13:09:33:3122 Rx 1 0x270 s 8 18 43 41 01 00 00 22 59 
13:09:33:4138 Tx 1 0x268 s 8 00 00 00 00 28 28 01 00 
13:09:33:5618 Tx 1 0x268 s 8 00 00 00 00 28 28 01 00 
13:09:33:7134 Rx 1 0x270 s 8 18 43 41 01 00 00 22 59 
13:09:33:7187 Tx 1 0x268 s 8 00 00 00 00 28 28 01 00 
13:09:33:8689 Tx 1 0x268 s 8 00 00 00 00 28 28 01 00 
13:09:34:0269 Tx 1 0x268 s 8 00 00 00 00 28 28 01 00 
13:09:34:1150 Rx 1 0x270 s 8 18 43 41 01 00 00 22 59 
13:09:34:1806 Tx 1 0x268 s 8 00 00 00 00 28 28 01 00 
13:09:34:3303 Tx 1 0x268 s 8 00 00 00 00 28 28 01 00 
13:09:34:4822 Tx 1 0x268 s 8 00 00 00 00 28 28 01 00 
13:09:34:5162 Rx 1 0x270 s 8 18 43 41 01 00 00 22 59 
13:09:34:6342 Tx 1 0x268 s 8 00 00 00 00 28 28 01 00 
13:09:34:7872 Tx 1 0x268 s 8 00 00 00 00 28 28 01 00 
13:09:34:9176 Rx 1 0x270 s 8 18 43 41 01 00 00 22 59 
13:09:34:9403 Tx 1 0x268 s 8 00 00 00 00 28 28 01 00 
13:09:35:0881 Tx 1 0x268 s 8 00 00 00 00 28 28 01 00 
13:09:35:2480 Tx 1 0x268 s 8 00 00 00 00 28 28 01 00 
13:09:35:3191 Rx 1 0x270 s 8 18 43 41 01 00 00 22 59 
13:09:35:3971 Tx 1 0x268 s 8 00 00 00 00 28 28 01 00 
13:09:35:5377 Tx 1 0x268 s 8 00 00 00 00 28 28 01 00 
13:09:35:6915 Tx 1 0x268 s 8 00 00 00 00 28 28 01 00 
