***BUSMASTER Ver 3.2.2***
***PROTOCOL CAN***
***NOTE: PLEASE DO NOT EDIT THIS DOCUMENT***
***[START LOGGING SESSION]***
***START DATE AND TIME 15:2:2024 17:58:1:54***
***HEX***
***SYSTEM MODE***
***START CHANNEL BAUD RATE***
***CHANNEL 1 - PCAN-USB Driver Id 16 - 500000 bps***
***END CHANNEL BAUD RATE***
***START DATABASE FILES***
***END DATABASE FILES***
***<Time><Tx/Rx><Channel><CAN ID><Type><DLC><DataBytes>***
17:58:01:0710 Rx 1 0x1DD1800 x 8 00 0A 0A 0A 15 00 00 00 
17:58:01:1057 Rx 1 0x1DD1000 x 8 01 0C E7 00 3C 03 00 00 
17:58:01:1646 Rx 1 0x1DD1000 x 8 01 0C E7 00 3C 00 00 80 
17:58:01:2403 Rx 1 0x1DD1100 x 8 C5 9A D1 9A C6 9A D6 9A 
17:58:01:2406 Rx 1 0x1DD1200 x 8 E4 9A EF 9A DF 9A E2 9A 
17:58:01:2409 Rx 1 0x1DD1300 x 8 D0 9A E1 9A E0 9A DF 9A 
17:58:01:2412 Rx 1 0x1DD1400 x 8 D3 9A D7 9A DA 9A DB 9A 
17:58:01:2415 Rx 1 0x1DD1500 x 8 BB 9A C3 9A F4 5C 00 00 
17:58:01:2418 Rx 1 0x1DD1101 x 8 C8 9A F6 99 D5 9A D7 9A 
17:58:01:2421 Rx 1 0x1DD1201 x 8 D1 9A D5 9A D8 9A D4 9A 
17:58:01:2425 Rx 1 0x1DD1301 x 8 D5 9A DC 9A DE 9A D9 9A 
17:58:01:2428 Rx 1 0x1DD1401 x 8 D5 9A DA 9A DB 9A E4 9A 
17:58:01:2430 Rx 1 0x1DD1501 x 8 26 98 AD 9A CB 5C 00 00 
17:58:01:2434 Rx 1 0x1DD1102 x 8 D6 9A D9 9A BA 99 D4 9A 
17:58:01:2437 Rx 1 0x1DD1202 x 8 D7 9A D1 9A D5 9A D6 9A 
17:58:01:2440 Rx 1 0x1DD1302 x 8 DD 9A DA 9A D7 9A DC 9A 
17:58:01:2443 Rx 1 0x1DD1402 x 8 00 00 00 00 00 00 00 00 
17:58:01:2447 Rx 1 0x1DD1502 x 8 00 00 00 00 E1 3D 00 00 
17:58:01:2450 Rx 1 0x1DD1600 x 8 CA 15 01 16 05 16 00 00 
17:58:01:2453 Rx 1 0x1DD1700 x 8 C1 14 65 15 4F 5C 00 00 
17:58:01:2459 Rx 1 0x1DD1601 x 8 F6 15 CF 15 FF 15 00 00 
17:58:01:2465 Rx 1 0x1DD1701 x 8 F1 15 7C 15 51 5A 00 00 
17:58:01:2474 Rx 1 0x1DD1602 x 8 E5 15 0C 16 03 16 00 00 
17:58:01:2481 Rx 1 0x1DD1702 x 8 74 16 83 15 4C 5A 00 00 
17:58:01:3153 Rx 1 0x1DD1000 x 8 01 0C E6 00 3C 03 00 00 
17:58:01:3612 Rx 1 0x1DD1000 x 8 01 0C E8 00 3C 00 00 80 
17:58:01:4369 Rx 1 0x1DD1100 x 8 C5 9A D0 9A C5 9A D6 9A 
17:58:01:4372 Rx 1 0x1DD1200 x 8 E4 9A EF 9A E0 9A E3 9A 
17:58:01:4375 Rx 1 0x1DD1300 x 8 D1 9A E1 9A DF 9A DF 9A 
17:58:01:4378 Rx 1 0x1DD1400 x 8 D2 9A D8 9A DB 9A DC 9A 
17:58:01:4382 Rx 1 0x1DD1500 x 8 BB 9A C4 9A F4 5C 00 00 
17:58:01:4385 Rx 1 0x1DD1101 x 8 C8 9A F5 99 D7 9A D7 9A 
17:58:01:4388 Rx 1 0x1DD1201 x 8 D2 9A D6 9A D7 9A D3 9A 
17:58:01:4391 Rx 1 0x1DD1301 x 8 D5 9A DC 9A DF 9A D9 9A 
17:58:01:4394 Rx 1 0x1DD1401 x 8 D4 9A DA 9A D9 9A E3 9A 
17:58:01:4397 Rx 1 0x1DD1501 x 8 24 98 AB 9A CA 5C 00 00 
17:58:01:4400 Rx 1 0x1DD1102 x 8 D6 9A D8 9A B9 99 D3 9A 
17:58:01:4403 Rx 1 0x1DD1202 x 8 D7 9A D0 9A D4 9A D7 9A 
17:58:01:4406 Rx 1 0x1DD1302 x 8 DA 9A D8 9A D8 9A DA 9A 
17:58:01:4410 Rx 1 0x1DD1402 x 8 00 00 00 00 00 00 00 00 
17:58:01:4413 Rx 1 0x1DD1502 x 8 00 00 00 00 E0 3D 00 00 
17:58:01:4416 Rx 1 0x1DD1600 x 8 C9 15 FE 15 03 16 00 00 
17:58:01:4420 Rx 1 0x1DD1700 x 8 BF 14 63 15 4E 5C 00 00 
17:58:01:4426 Rx 1 0x1DD1601 x 8 F5 15 CC 15 FE 15 00 00 
17:58:01:4432 Rx 1 0x1DD1701 x 8 F1 15 7C 15 51 5A 00 00 
17:58:01:4441 Rx 1 0x1DD1602 x 8 E6 15 0C 16 03 16 00 00 
17:58:01:4447 Rx 1 0x1DD1702 x 8 74 16 84 15 4C 5A 00 00 
17:58:01:5119 Rx 1 0x1DD1000 x 8 01 0C E6 00 3C 03 00 00 
17:58:01:5578 Rx 1 0x1DD1000 x 8 01 0C E7 00 3C 00 00 80 
17:58:01:5711 Rx 1 0x1DD1800 x 8 00 0A 0A 0A 15 00 00 00 
17:58:01:6466 Rx 1 0x1DD1100 x 8 C2 9A CF 9A C5 9A D5 9A 
17:58:01:6469 Rx 1 0x1DD1200 x 8 E4 9A F1 9A E1 9A E2 9A 
17:58:01:6472 Rx 1 0x1DD1300 x 8 D0 9A E1 9A DF 9A E0 9A 
17:58:01:6475 Rx 1 0x1DD1400 x 8 D2 9A D6 9A D8 9A DB 9A 
17:58:01:6478 Rx 1 0x1DD1500 x 8 BA 9A C4 9A F3 5C 00 00 
17:58:01:6482 Rx 1 0x1DD1101 x 8 C8 9A F6 99 D7 9A D7 9A 
17:58:01:6484 Rx 1 0x1DD1201 x 8 D1 9A D5 9A D8 9A D4 9A 
17:58:01:6488 Rx 1 0x1DD1301 x 8 D6 9A DC 9A DF 9A D9 9A 
17:58:01:6491 Rx 1 0x1DD1401 x 8 D4 9A DA 9A DB 9A E3 9A 
17:58:01:6494 Rx 1 0x1DD1501 x 8 25 98 AA 9A CB 5C 00 00 
17:58:01:6497 Rx 1 0x1DD1102 x 8 D6 9A D9 9A BA 99 D3 9A 
17:58:01:6500 Rx 1 0x1DD1202 x 8 D7 9A D0 9A D6 9A D9 9A 
17:58:01:6503 Rx 1 0x1DD1302 x 8 DD 9A DA 9A D7 9A DB 9A 
17:58:01:6506 Rx 1 0x1DD1402 x 8 00 00 00 00 00 00 00 00 
17:58:01:6510 Rx 1 0x1DD1502 x 8 00 00 00 00 E1 3D 00 00 
17:58:01:6513 Rx 1 0x1DD1600 x 8 C7 15 FE 15 04 16 00 00 
17:58:01:6516 Rx 1 0x1DD1700 x 8 BE 14 61 15 50 5C 00 00 
17:58:01:6523 Rx 1 0x1DD1601 x 8 F6 15 CD 15 FE 15 00 00 
17:58:01:6529 Rx 1 0x1DD1701 x 8 F1 15 7B 15 52 5A 00 00 
17:58:01:6538 Rx 1 0x1DD1602 x 8 E6 15 0D 16 03 16 00 00 
17:58:01:6544 Rx 1 0x1DD1702 x 8 74 16 83 15 4E 5A 00 00 
17:58:01:7085 Rx 1 0x1DD1000 x 8 01 0C E6 00 3C 03 00 00 
17:58:01:7544 Rx 1 0x1DD1000 x 8 01 0C E7 00 3C 00 00 80 
17:58:01:8431 Rx 1 0x1DD1100 x 8 C4 9A D0 9A C5 9A D6 9A 
17:58:01:8435 Rx 1 0x1DD1200 x 8 E4 9A F0 9A E0 9A E1 9A 
17:58:01:8438 Rx 1 0x1DD1300 x 8 D1 9A E0 9A DF 9A E0 9A 
17:58:01:8441 Rx 1 0x1DD1400 x 8 D2 9A D8 9A DA 9A DB 9A 
17:58:01:8444 Rx 1 0x1DD1500 x 8 BB 9A C4 9A F5 5C 00 00 
17:58:01:8447 Rx 1 0x1DD1101 x 8 C9 9A F6 99 D7 9A D7 9A 
17:58:01:8450 Rx 1 0x1DD1201 x 8 D2 9A D5 9A D7 9A D2 9A 
17:58:01:8453 Rx 1 0x1DD1301 x 8 D6 9A DC 9A DF 9A D9 9A 
17:58:01:8457 Rx 1 0x1DD1401 x 8 D4 9A D8 9A D9 9A E3 9A 
17:58:01:8460 Rx 1 0x1DD1501 x 8 24 98 AB 9A CB 5C 00 00 
17:58:01:8463 Rx 1 0x1DD1102 x 8 D5 9A D9 9A B9 99 D3 9A 
17:58:01:8466 Rx 1 0x1DD1202 x 8 D8 9A D1 9A D6 9A D7 9A 
17:58:01:8469 Rx 1 0x1DD1302 x 8 DC 9A DA 9A D8 9A DB 9A 
17:58:01:8472 Rx 1 0x1DD1402 x 8 00 00 00 00 00 00 00 00 
17:58:01:8476 Rx 1 0x1DD1502 x 8 00 00 00 00 E1 3D 00 00 
17:58:01:8479 Rx 1 0x1DD1600 x 8 C9 15 01 16 04 16 00 00 
17:58:01:8482 Rx 1 0x1DD1700 x 8 BE 14 63 15 4E 5C 00 00 
17:58:01:8488 Rx 1 0x1DD1601 x 8 F6 15 CD 15 FE 15 00 00 
17:58:01:8495 Rx 1 0x1DD1701 x 8 EF 15 7B 15 55 5A 00 00 
17:58:01:8504 Rx 1 0x1DD1602 x 8 E7 15 0C 16 03 16 00 00 
17:58:01:8510 Rx 1 0x1DD1702 x 8 74 16 85 15 4E 5A 00 00 
17:58:01:9182 Rx 1 0x1DD1000 x 8 01 0C E7 00 3C 03 00 00 
17:58:01:9641 Rx 1 0x1DD1000 x 8 01 0C E8 00 3C 00 00 80 
17:58:02:0397 Rx 1 0x1DD1100 x 8 C4 9A CF 9A C4 9A D6 9A 
17:58:02:0400 Rx 1 0x1DD1200 x 8 E4 9A F1 9A DE 9A E2 9A 
17:58:02:0403 Rx 1 0x1DD1300 x 8 D0 9A DF 9A E0 9A DF 9A 
17:58:02:0406 Rx 1 0x1DD1400 x 8 D1 9A D6 9A D9 9A DB 9A 
17:58:02:0409 Rx 1 0x1DD1500 x 8 BB 9A C2 9A F4 5C 00 00 
17:58:02:0412 Rx 1 0x1DD1101 x 8 C8 9A F5 99 D6 9A D6 9A 
17:58:02:0415 Rx 1 0x1DD1201 x 8 D1 9A D7 9A D8 9A D3 9A 
17:58:02:0418 Rx 1 0x1DD1301 x 8 D6 9A DD 9A E0 9A DA 9A 
17:58:02:0421 Rx 1 0x1DD1401 x 8 D4 9A DB 9A DA 9A E4 9A 
17:58:02:0425 Rx 1 0x1DD1501 x 8 25 98 AC 9A CA 5C 00 00 
17:58:02:0428 Rx 1 0x1DD1102 x 8 D6 9A D9 9A BA 99 D4 9A 
17:58:02:0431 Rx 1 0x1DD1202 x 8 D8 9A D1 9A D6 9A D8 9A 
17:58:02:0434 Rx 1 0x1DD1302 x 8 DC 9A D9 9A D6 9A DB 9A 
17:58:02:0437 Rx 1 0x1DD1402 x 8 00 00 00 00 00 00 00 00 
17:58:02:0440 Rx 1 0x1DD1502 x 8 00 00 00 00 E1 3D 00 00 
17:58:02:0444 Rx 1 0x1DD1600 x 8 C7 15 FE 15 04 16 00 00 
17:58:02:0447 Rx 1 0x1DD1700 x 8 BE 14 62 15 4F 5C 00 00 
17:58:02:0453 Rx 1 0x1DD1601 x 8 F6 15 CD 15 FE 15 00 00 
17:58:02:0460 Rx 1 0x1DD1701 x 8 EF 15 7A 15 53 5A 00 00 
17:58:02:0469 Rx 1 0x1DD1602 x 8 E6 15 0D 16 03 16 00 00 
17:58:02:0475 Rx 1 0x1DD1702 x 8 74 16 84 15 4C 5A 00 00 
17:58:02:0711 Rx 1 0x1DD1800 x 8 00 0A 0A 0A 15 00 00 00 
17:58:02:1147 Rx 1 0x1DD1000 x 8 01 0C E6 00 3C 03 00 00 
17:58:02:1606 Rx 1 0x1DD1000 x 8 01 0C E7 00 3C 00 00 80 
17:58:02:2363 Rx 1 0x1DD1100 x 8 C5 9A D1 9A C6 9A D5 9A 
17:58:02:2366 Rx 1 0x1DD1200 x 8 E5 9A F1 9A E0 9A E2 9A 
17:58:02:2369 Rx 1 0x1DD1300 x 8 D1 9A E1 9A DF 9A E0 9A 
17:58:02:2372 Rx 1 0x1DD1400 x 8 D2 9A D9 9A DA 9A DA 9A 
17:58:02:2375 Rx 1 0x1DD1500 x 8 BB 9A C4 9A F4 5C 00 00 
17:58:02:2378 Rx 1 0x1DD1101 x 8 C9 9A F5 99 D6 9A D7 9A 
17:58:02:2381 Rx 1 0x1DD1201 x 8 D2 9A D5 9A D8 9A D3 9A 
17:58:02:2385 Rx 1 0x1DD1301 x 8 D5 9A DD 9A DE 9A DA 9A 
17:58:02:2388 Rx 1 0x1DD1401 x 8 D5 9A DA 9A DA 9A E2 9A 
17:58:02:2391 Rx 1 0x1DD1501 x 8 26 98 AC 9A CB 5C 00 00 
17:58:02:2394 Rx 1 0x1DD1102 x 8 D6 9A D9 9A BA 99 D4 9A 
17:58:02:2397 Rx 1 0x1DD1202 x 8 D7 9A D2 9A D4 9A D8 9A 
17:58:02:2401 Rx 1 0x1DD1302 x 8 DC 9A DA 9A D7 9A DB 9A 
17:58:02:2404 Rx 1 0x1DD1402 x 8 00 00 00 00 00 00 00 00 
17:58:02:2407 Rx 1 0x1DD1502 x 8 00 00 00 00 E0 3D 00 00 
17:58:02:2410 Rx 1 0x1DD1600 x 8 C8 15 00 16 03 16 00 00 
17:58:02:2413 Rx 1 0x1DD1700 x 8 BE 14 63 15 4F 5C 00 00 
17:58:02:2419 Rx 1 0x1DD1601 x 8 F5 15 CC 15 FD 15 00 00 
17:58:02:2426 Rx 1 0x1DD1701 x 8 EF 15 7A 15 51 5A 00 00 
17:58:02:2435 Rx 1 0x1DD1602 x 8 E7 15 0E 16 04 16 00 00 
17:58:02:2441 Rx 1 0x1DD1702 x 8 72 16 83 15 4D 5A 00 00 
17:58:02:3113 Rx 1 0x1DD1000 x 8 01 0C E7 00 3C 03 00 00 
17:58:02:3572 Rx 1 0x1DD1000 x 8 01 0C E7 00 3C 00 00 80 
17:58:02:4460 Rx 1 0x1DD1100 x 8 C6 9A D2 9A C6 9A D6 9A 
17:58:02:4463 Rx 1 0x1DD1200 x 8 E5 9A F0 9A DF 9A E0 9A 
17:58:02:4466 Rx 1 0x1DD1300 x 8 D1 9A E0 9A DF 9A E0 9A 
17:58:02:4469 Rx 1 0x1DD1400 x 8 D1 9A D8 9A DA 9A DC 9A 
17:58:02:4472 Rx 1 0x1DD1500 x 8 BB 9A C5 9A F4 5C 00 00 
17:58:02:4475 Rx 1 0x1DD1101 x 8 C9 9A F6 99 D6 9A D7 9A 
17:58:02:4478 Rx 1 0x1DD1201 x 8 D1 9A D6 9A D8 9A D3 9A 
17:58:02:4482 Rx 1 0x1DD1301 x 8 D4 9A DC 9A E0 9A D9 9A 
17:58:02:4485 Rx 1 0x1DD1401 x 8 D5 9A DA 9A DA 9A E4 9A 
17:58:02:4488 Rx 1 0x1DD1501 x 8 26 98 AB 9A CB 5C 00 00 
17:58:02:4491 Rx 1 0x1DD1102 x 8 D6 9A D8 9A B9 99 D2 9A 
17:58:02:4494 Rx 1 0x1DD1202 x 8 D7 9A D0 9A D7 9A D7 9A 
17:58:02:4497 Rx 1 0x1DD1302 x 8 DC 9A DA 9A D7 9A DA 9A 
17:58:02:4501 Rx 1 0x1DD1402 x 8 00 00 00 00 00 00 00 00 
17:58:02:4504 Rx 1 0x1DD1502 x 8 00 00 00 00 E0 3D 00 00 
17:58:02:4507 Rx 1 0x1DD1600 x 8 C8 15 00 16 05 16 00 00 
17:58:02:4510 Rx 1 0x1DD1700 x 8 BE 14 63 15 4F 5C 00 00 
17:58:02:4516 Rx 1 0x1DD1601 x 8 F5 15 CD 15 FD 15 00 00 
17:58:02:4523 Rx 1 0x1DD1701 x 8 EE 15 79 15 52 5A 00 00 
17:58:02:4531 Rx 1 0x1DD1602 x 8 E5 15 0B 16 04 16 00 00 
17:58:02:4538 Rx 1 0x1DD1702 x 8 72 16 82 15 4E 5A 00 00 
17:58:02:5080 Rx 1 0x1DD1000 x 8 01 0C E6 00 3C 03 00 00 
17:58:02:5539 Rx 1 0x1DD1000 x 8 01 0C E7 00 3C 00 00 80 
17:58:02:5712 Rx 1 0x1DD1800 x 8 00 0A 0A 0A 15 00 00 00 
17:58:02:6426 Rx 1 0x1DD1100 x 8 C5 9A D0 9A C5 9A D4 9A 
17:58:02:6429 Rx 1 0x1DD1200 x 8 E3 9A EE 9A DF 9A E1 9A 
17:58:02:6432 Rx 1 0x1DD1300 x 8 CF 9A E2 9A DF 9A DF 9A 
17:58:02:6435 Rx 1 0x1DD1400 x 8 D3 9A D8 9A DC 9A DB 9A 
17:58:02:6438 Rx 1 0x1DD1500 x 8 BB 9A C4 9A F5 5C 00 00 
17:58:02:6441 Rx 1 0x1DD1101 x 8 C8 9A F6 99 D6 9A D6 9A 
17:58:02:6444 Rx 1 0x1DD1201 x 8 D0 9A D5 9A D8 9A D3 9A 
17:58:02:6447 Rx 1 0x1DD1301 x 8 D5 9A DC 9A DF 9A D9 9A 
17:58:02:6450 Rx 1 0x1DD1401 x 8 D4 9A DA 9A DB 9A E3 9A 
17:58:02:6454 Rx 1 0x1DD1501 x 8 25 98 AB 9A CB 5C 00 00 
17:58:02:6457 Rx 1 0x1DD1102 x 8 D6 9A D8 9A B9 99 D4 9A 
17:58:02:6460 Rx 1 0x1DD1202 x 8 D8 9A D1 9A D6 9A D7 9A 
17:58:02:6463 Rx 1 0x1DD1302 x 8 DB 9A D8 9A D7 9A DA 9A 
17:58:02:6466 Rx 1 0x1DD1402 x 8 00 00 00 00 00 00 00 00 
17:58:02:6470 Rx 1 0x1DD1502 x 8 00 00 00 00 E1 3D 00 00 
17:58:02:6473 Rx 1 0x1DD1600 x 8 C8 15 FF 15 03 16 00 00 
17:58:02:6476 Rx 1 0x1DD1700 x 8 BD 14 61 15 4A 5C 00 00 
17:58:02:6482 Rx 1 0x1DD1601 x 8 F4 15 CB 15 FD 15 00 00 
17:58:02:6489 Rx 1 0x1DD1701 x 8 EE 15 7A 15 52 5A 00 00 
17:58:02:6498 Rx 1 0x1DD1602 x 8 E5 15 0C 16 03 16 00 00 
17:58:02:6504 Rx 1 0x1DD1702 x 8 72 16 82 15 4E 5A 00 00 
17:58:02:7176 Rx 1 0x1DD1000 x 8 01 0C E5 00 3C 03 00 00 
17:58:02:7635 Rx 1 0x1DD1000 x 8 01 0C E7 00 3C 00 00 80 
17:58:02:8392 Rx 1 0x1DD1100 x 8 C5 9A D1 9A C6 9A D6 9A 
17:58:02:8395 Rx 1 0x1DD1200 x 8 E4 9A F0 9A DF 9A E2 9A 
17:58:02:8398 Rx 1 0x1DD1300 x 8 D2 9A E1 9A E0 9A E1 9A 
17:58:02:8401 Rx 1 0x1DD1400 x 8 D3 9A D8 9A DA 9A DB 9A 
17:58:02:8404 Rx 1 0x1DD1500 x 8 BB 9A C4 9A F4 5C 00 00 
17:58:02:8407 Rx 1 0x1DD1101 x 8 C9 9A F6 99 D6 9A D7 9A 
17:58:02:8410 Rx 1 0x1DD1201 x 8 D1 9A D5 9A D8 9A D3 9A 
17:58:02:8413 Rx 1 0x1DD1301 x 8 D5 9A DC 9A DF 9A DA 9A 
17:58:02:8416 Rx 1 0x1DD1401 x 8 D5 9A DA 9A DA 9A E3 9A 
17:58:02:8419 Rx 1 0x1DD1501 x 8 24 98 AA 9A CA 5C 00 00 
17:58:02:8423 Rx 1 0x1DD1102 x 8 D5 9A D9 9A B9 99 D3 9A 
17:58:02:8426 Rx 1 0x1DD1202 x 8 D8 9A D0 9A D5 9A D8 9A 
17:58:02:8429 Rx 1 0x1DD1302 x 8 DB 9A D9 9A D7 9A DB 9A 
17:58:02:8432 Rx 1 0x1DD1402 x 8 00 00 00 00 00 00 00 00 
17:58:02:8436 Rx 1 0x1DD1502 x 8 00 00 00 00 E1 3D 00 00 
17:58:02:8439 Rx 1 0x1DD1600 x 8 C7 15 00 16 03 16 00 00 
17:58:02:8442 Rx 1 0x1DD1700 x 8 BE 14 61 15 4C 5C 00 00 
17:58:02:8448 Rx 1 0x1DD1601 x 8 F7 15 CE 15 00 16 00 00 
17:58:02:8454 Rx 1 0x1DD1701 x 8 F0 15 7B 15 53 5A 00 00 
17:58:02:8463 Rx 1 0x1DD1602 x 8 E6 15 0D 16 03 16 00 00 
17:58:02:8470 Rx 1 0x1DD1702 x 8 72 16 82 15 4D 5A 00 00 
17:58:02:9142 Rx 1 0x1DD1000 x 8 01 0C E7 00 3C 03 00 00 
17:58:02:9601 Rx 1 0x1DD1000 x 8 01 0C E7 00 3C 00 00 80 
17:58:03:0358 Rx 1 0x1DD1100 x 8 C4 9A CF 9A C6 9A D5 9A 
17:58:03:0361 Rx 1 0x1DD1200 x 8 E3 9A F0 9A DF 9A E2 9A 
17:58:03:0364 Rx 1 0x1DD1300 x 8 D1 9A E1 9A E0 9A DF 9A 
17:58:03:0367 Rx 1 0x1DD1400 x 8 D2 9A D7 9A DB 9A DB 9A 
17:58:03:0370 Rx 1 0x1DD1500 x 8 BB 9A C3 9A F5 5C 00 00 
17:58:03:0373 Rx 1 0x1DD1101 x 8 C9 9A F6 99 D6 9A D7 9A 
17:58:03:0377 Rx 1 0x1DD1201 x 8 D2 9A D5 9A D9 9A D3 9A 
17:58:03:0380 Rx 1 0x1DD1301 x 8 D5 9A DC 9A DE 9A D9 9A 
17:58:03:0382 Rx 1 0x1DD1401 x 8 D5 9A DA 9A DB 9A E3 9A 
17:58:03:0386 Rx 1 0x1DD1501 x 8 25 98 AB 9A CA 5C 00 00 
17:58:03:0389 Rx 1 0x1DD1102 x 8 D6 9A D9 9A BA 99 D3 9A 
17:58:03:0392 Rx 1 0x1DD1202 x 8 D8 9A D1 9A D4 9A D7 9A 
17:58:03:0395 Rx 1 0x1DD1302 x 8 DB 9A DA 9A D7 9A DC 9A 
17:58:03:0399 Rx 1 0x1DD1402 x 8 00 00 00 00 00 00 00 00 
17:58:03:0402 Rx 1 0x1DD1502 x 8 00 00 00 00 E1 3D 00 00 
17:58:03:0405 Rx 1 0x1DD1600 x 8 CA 15 00 16 04 16 00 00 
17:58:03:0408 Rx 1 0x1DD1700 x 8 BD 14 62 15 4E 5C 00 00 
17:58:03:0414 Rx 1 0x1DD1601 x 8 F6 15 CD 15 FF 15 00 00 
17:58:03:0420 Rx 1 0x1DD1701 x 8 EF 15 7A 15 52 5A 00 00 
17:58:03:0428 Rx 1 0x1DD1602 x 8 E6 15 0C 16 03 16 00 00 
17:58:03:0435 Rx 1 0x1DD1702 x 8 73 16 82 15 4D 5A 00 00 
17:58:03:0712 Rx 1 0x1DD1800 x 8 00 0A 0A 0A 15 00 00 00 
17:58:03:1108 Rx 1 0x1DD1000 x 8 01 0C E7 00 3C 03 00 00 
17:58:03:1566 Rx 1 0x1DD1000 x 8 01 0C E7 00 3C 00 00 80 
17:58:03:2453 Rx 1 0x1DD1100 x 8 C4 9A D0 9A C5 9A D6 9A 
17:58:03:2457 Rx 1 0x1DD1200 x 8 E5 9A F0 9A DE 9A E1 9A 
17:58:03:2460 Rx 1 0x1DD1300 x 8 D1 9A E1 9A DF 9A E0 9A 
17:58:03:2463 Rx 1 0x1DD1400 x 8 D1 9A D7 9A DB 9A DB 9A 
17:58:03:2466 Rx 1 0x1DD1500 x 8 BB 9A C5 9A F4 5C 00 00 
17:58:03:2469 Rx 1 0x1DD1101 x 8 C8 9A F5 99 D6 9A D7 9A 
17:58:03:2472 Rx 1 0x1DD1201 x 8 D2 9A D5 9A D9 9A D3 9A 
17:58:03:2476 Rx 1 0x1DD1301 x 8 D5 9A DD 9A DE 9A DA 9A 
17:58:03:2479 Rx 1 0x1DD1401 x 8 D5 9A DA 9A DA 9A E3 9A 
17:58:03:2482 Rx 1 0x1DD1501 x 8 25 98 AC 9A CA 5C 00 00 
17:58:03:2485 Rx 1 0x1DD1102 x 8 D6 9A D9 9A BA 99 D3 9A 
17:58:03:2488 Rx 1 0x1DD1202 x 8 D7 9A D1 9A D6 9A D9 9A 
17:58:03:2491 Rx 1 0x1DD1302 x 8 DC 9A D8 9A D7 9A DB 9A 
17:58:03:2494 Rx 1 0x1DD1402 x 8 00 00 00 00 00 00 00 00 
17:58:03:2498 Rx 1 0x1DD1502 x 8 00 00 00 00 E0 3D 00 00 
17:58:03:2501 Rx 1 0x1DD1600 x 8 C8 15 FF 15 04 16 00 00 
17:58:03:2504 Rx 1 0x1DD1700 x 8 BD 14 62 15 4F 5C 00 00 
17:58:03:2510 Rx 1 0x1DD1601 x 8 F8 15 CE 15 FF 15 00 00 
17:58:03:2517 Rx 1 0x1DD1701 x 8 F1 15 7A 15 53 5A 00 00 
17:58:03:2526 Rx 1 0x1DD1602 x 8 E7 15 0D 16 04 16 00 00 
17:58:03:2532 Rx 1 0x1DD1702 x 8 73 16 83 15 4D 5A 00 00 
17:58:03:3073 Rx 1 0x1DD1000 x 8 01 0C E6 00 3C 03 00 00 
17:58:03:3532 Rx 1 0x1DD1000 x 8 01 0C E7 00 3C 00 00 80 
17:58:03:4419 Rx 1 0x1DD1100 x 8 C4 9A D2 9A C5 9A D6 9A 
17:58:03:4423 Rx 1 0x1DD1200 x 8 E5 9A F0 9A E0 9A E2 9A 
17:58:03:4426 Rx 1 0x1DD1300 x 8 D2 9A E1 9A DF 9A E0 9A 
17:58:03:4429 Rx 1 0x1DD1400 x 8 D2 9A D6 9A DA 9A DB 9A 
17:58:03:4432 Rx 1 0x1DD1500 x 8 BA 9A C4 9A F5 5C 00 00 
17:58:03:4435 Rx 1 0x1DD1101 x 8 C8 9A F5 99 D6 9A D6 9A 
17:58:03:4438 Rx 1 0x1DD1201 x 8 D1 9A D7 9A D9 9A D3 9A 
17:58:03:4442 Rx 1 0x1DD1301 x 8 D6 9A DD 9A DF 9A D9 9A 
17:58:03:4445 Rx 1 0x1DD1401 x 8 D5 9A DB 9A DA 9A E3 9A 
17:58:03:4448 Rx 1 0x1DD1501 x 8 26 98 AC 9A CA 5C 00 00 
17:58:03:4451 Rx 1 0x1DD1102 x 8 D5 9A D8 9A BA 99 D4 9A 
17:58:03:4454 Rx 1 0x1DD1202 x 8 D7 9A D0 9A D6 9A D6 9A 
17:58:03:4457 Rx 1 0x1DD1302 x 8 DC 9A DA 9A D7 9A DA 9A 
17:58:03:4460 Rx 1 0x1DD1402 x 8 00 00 00 00 00 00 00 00 
17:58:03:4464 Rx 1 0x1DD1502 x 8 00 00 00 00 E1 3D 00 00 
17:58:03:4467 Rx 1 0x1DD1600 x 8 C6 15 FE 15 04 16 00 00 
17:58:03:4470 Rx 1 0x1DD1700 x 8 BB 14 61 15 4B 5C 00 00 
17:58:03:4476 Rx 1 0x1DD1601 x 8 F6 15 CD 15 FE 15 00 00 
17:58:03:4483 Rx 1 0x1DD1701 x 8 EF 15 79 15 53 5A 00 00 
17:58:03:4492 Rx 1 0x1DD1602 x 8 E8 15 0E 16 04 16 00 00 
17:58:03:4498 Rx 1 0x1DD1702 x 8 73 16 82 15 4D 5A 00 00 
17:58:03:5170 Rx 1 0x1DD1000 x 8 01 0C E7 00 3C 03 00 00 
17:58:03:5629 Rx 1 0x1DD1000 x 8 01 0C E8 00 3C 00 00 80 
17:58:03:5713 Rx 1 0x1DD1800 x 8 00 0A 0A 0A 15 00 00 00 
17:58:03:6385 Rx 1 0x1DD1100 x 8 C3 9A D0 9A C6 9A D6 9A 
17:58:03:6388 Rx 1 0x1DD1200 x 8 E6 9A F0 9A E0 9A E3 9A 
17:58:03:6392 Rx 1 0x1DD1300 x 8 D2 9A E0 9A DF 9A E0 9A 
17:58:03:6395 Rx 1 0x1DD1400 x 8 D3 9A D8 9A DA 9A DB 9A 
17:58:03:6398 Rx 1 0x1DD1500 x 8 BA 9A C4 9A F5 5C 00 00 
17:58:03:6401 Rx 1 0x1DD1101 x 8 C9 9A F6 99 D6 9A D6 9A 
17:58:03:6404 Rx 1 0x1DD1201 x 8 D2 9A D6 9A D8 9A D4 9A 
17:58:03:6407 Rx 1 0x1DD1301 x 8 D4 9A DC 9A DF 9A D9 9A 
17:58:03:6411 Rx 1 0x1DD1401 x 8 D4 9A DA 9A DA 9A E5 9A 
17:58:03:6414 Rx 1 0x1DD1501 x 8 25 98 AC 9A C9 5C 00 00 
17:58:03:6417 Rx 1 0x1DD1102 x 8 D6 9A DA 9A B9 99 D3 9A 
17:58:03:6420 Rx 1 0x1DD1202 x 8 D7 9A D1 9A D5 9A D7 9A 
17:58:03:6423 Rx 1 0x1DD1302 x 8 DC 9A D9 9A D6 9A DC 9A 
17:58:03:6426 Rx 1 0x1DD1402 x 8 00 00 00 00 00 00 00 00 
17:58:03:6429 Rx 1 0x1DD1502 x 8 00 00 00 00 E0 3D 00 00 
17:58:03:6433 Rx 1 0x1DD1600 x 8 C7 15 FF 15 03 16 00 00 
17:58:03:6436 Rx 1 0x1DD1700 x 8 BC 14 60 15 4E 5C 00 00 
17:58:03:6442 Rx 1 0x1DD1601 x 8 F6 15 CE 15 FE 15 00 00 
17:58:03:6449 Rx 1 0x1DD1701 x 8 EF 15 79 15 52 5A 00 00 
17:58:03:6458 Rx 1 0x1DD1602 x 8 E7 15 0D 16 06 16 00 00 
17:58:03:6464 Rx 1 0x1DD1702 x 8 75 16 84 15 4F 5A 00 00 
17:58:03:7136 Rx 1 0x1DD1000 x 8 01 0C E7 00 3C 03 00 00 
17:58:03:7595 Rx 1 0x1DD1000 x 8 01 0C E7 00 3C 00 00 80 
17:58:03:8482 Rx 1 0x1DD1100 x 8 C5 9A D1 9A C7 9A D6 9A 
17:58:03:8485 Rx 1 0x1DD1200 x 8 E5 9A F0 9A E0 9A E1 9A 
17:58:03:8489 Rx 1 0x1DD1300 x 8 D1 9A E0 9A DF 9A E0 9A 
17:58:03:8492 Rx 1 0x1DD1400 x 8 D4 9A D8 9A D9 9A DB 9A 
17:58:03:8495 Rx 1 0x1DD1500 x 8 BB 9A C2 9A F4 5C 00 00 
17:58:03:8498 Rx 1 0x1DD1101 x 8 C8 9A F6 99 D6 9A D6 9A 
17:58:03:8501 Rx 1 0x1DD1201 x 8 D1 9A D6 9A D7 9A D3 9A 
17:58:03:8504 Rx 1 0x1DD1301 x 8 D5 9A DC 9A DE 9A DA 9A 
17:58:03:8507 Rx 1 0x1DD1401 x 8 D5 9A DA 9A DC 9A E3 9A 
17:58:03:8511 Rx 1 0x1DD1501 x 8 26 98 AB 9A CB 5C 00 00 
17:58:03:8514 Rx 1 0x1DD1102 x 8 D6 9A D8 9A B9 99 D3 9A 
17:58:03:8517 Rx 1 0x1DD1202 x 8 D7 9A D1 9A D7 9A D8 9A 
17:58:03:8520 Rx 1 0x1DD1302 x 8 DC 9A DA 9A D8 9A DC 9A 
17:58:03:8523 Rx 1 0x1DD1402 x 8 00 00 00 00 00 00 00 00 
17:58:03:8526 Rx 1 0x1DD1502 x 8 00 00 00 00 E1 3D 00 00 
17:58:03:8530 Rx 1 0x1DD1600 x 8 C9 15 FE 15 05 16 00 00 
17:58:03:8533 Rx 1 0x1DD1700 x 8 BC 14 5F 15 4D 5C 00 00 
17:58:03:8539 Rx 1 0x1DD1601 x 8 F4 15 CC 15 FD 15 00 00 
17:58:03:8546 Rx 1 0x1DD1701 x 8 EC 15 78 15 53 5A 00 00 
17:58:03:8555 Rx 1 0x1DD1602 x 8 E7 15 0D 16 04 16 00 00 
17:58:03:8561 Rx 1 0x1DD1702 x 8 74 16 83 15 50 5A 00 00 
17:58:03:9102 Rx 1 0x1DD1000 x 8 01 0C E7 00 3C 03 00 00 
17:58:03:9561 Rx 1 0x1DD1000 x 8 01 0C E7 00 3C 00 00 80 
17:58:04:0447 Rx 1 0x1DD1100 x 8 C5 9A D0 9A C5 9A D6 9A 
17:58:04:0451 Rx 1 0x1DD1200 x 8 E4 9A F0 9A E0 9A E2 9A 
17:58:04:0454 Rx 1 0x1DD1300 x 8 D2 9A E1 9A E0 9A E0 9A 
17:58:04:0457 Rx 1 0x1DD1400 x 8 D3 9A D7 9A DA 9A DB 9A 
17:58:04:0460 Rx 1 0x1DD1500 x 8 BA 9A C4 9A F4 5C 00 00 
17:58:04:0463 Rx 1 0x1DD1101 x 8 C9 9A F6 99 D6 9A D7 9A 
17:58:04:0466 Rx 1 0x1DD1201 x 8 D2 9A D6 9A D8 9A D3 9A 
17:58:04:0469 Rx 1 0x1DD1301 x 8 D5 9A DC 9A DF 9A D9 9A 
17:58:04:0472 Rx 1 0x1DD1401 x 8 D4 9A D9 9A D9 9A E3 9A 
17:58:04:0475 Rx 1 0x1DD1501 x 8 24 98 AC 9A CB 5C 00 00 
17:58:04:0479 Rx 1 0x1DD1102 x 8 D6 9A D9 9A B9 99 D3 9A 
17:58:04:0482 Rx 1 0x1DD1202 x 8 D7 9A D0 9A D5 9A D7 9A 
17:58:04:0485 Rx 1 0x1DD1302 x 8 DB 9A D9 9A D7 9A DB 9A 
17:58:04:0488 Rx 1 0x1DD1402 x 8 00 00 00 00 00 00 00 00 
17:58:04:0491 Rx 1 0x1DD1502 x 8 00 00 00 00 E0 3D 00 00 
17:58:04:0494 Rx 1 0x1DD1600 x 8 C6 15 FF 15 04 16 00 00 
17:58:04:0498 Rx 1 0x1DD1700 x 8 BB 14 5F 15 4F 5C 00 00 
17:58:04:0504 Rx 1 0x1DD1601 x 8 F5 15 CD 15 FC 15 00 00 
17:58:04:0510 Rx 1 0x1DD1701 x 8 ED 15 77 15 55 5A 00 00 
17:58:04:0519 Rx 1 0x1DD1602 x 8 E5 15 0C 16 03 16 00 00 
17:58:04:0526 Rx 1 0x1DD1702 x 8 73 16 82 15 50 5A 00 00 
17:58:04:0712 Rx 1 0x1DD1800 x 8 00 0A 0A 0A 15 00 00 00 
17:58:04:1067 Rx 1 0x1DD1000 x 8 01 0C E6 00 3C 03 00 00 
17:58:04:1526 Rx 1 0x1DD1000 x 8 01 0C E8 00 3C 00 00 80 
17:58:04:2413 Rx 1 0x1DD1100 x 8 C4 9A CF 9A C5 9A D6 9A 
17:58:04:2417 Rx 1 0x1DD1200 x 8 E4 9A EF 9A DF 9A E2 9A 
17:58:04:2420 Rx 1 0x1DD1300 x 8 D2 9A E0 9A E0 9A E0 9A 
17:58:04:2423 Rx 1 0x1DD1400 x 8 D2 9A D8 9A D9 9A DB 9A 
17:58:04:2426 Rx 1 0x1DD1500 x 8 BB 9A C4 9A F3 5C 00 00 
17:58:04:2429 Rx 1 0x1DD1101 x 8 C8 9A F6 99 D7 9A D7 9A 
17:58:04:2432 Rx 1 0x1DD1201 x 8 D2 9A D6 9A D8 9A D2 9A 
17:58:04:2435 Rx 1 0x1DD1301 x 8 D5 9A DC 9A DE 9A D9 9A 
17:58:04:2438 Rx 1 0x1DD1401 x 8 D4 9A DB 9A D9 9A E2 9A 
17:58:04:2441 Rx 1 0x1DD1501 x 8 25 98 AB 9A CA 5C 00 00 
17:58:04:2444 Rx 1 0x1DD1102 x 8 D6 9A D9 9A BA 99 D3 9A 
17:58:04:2448 Rx 1 0x1DD1202 x 8 D8 9A D1 9A D5 9A D7 9A 
17:58:04:2451 Rx 1 0x1DD1302 x 8 DC 9A D9 9A D8 9A DC 9A 
17:58:04:2454 Rx 1 0x1DD1402 x 8 00 00 00 00 00 00 00 00 
17:58:04:2458 Rx 1 0x1DD1502 x 8 00 00 00 00 E1 3D 00 00 
17:58:04:2461 Rx 1 0x1DD1600 x 8 C7 15 FE 15 04 16 00 00 
17:58:04:2464 Rx 1 0x1DD1700 x 8 BA 14 5F 15 4E 5C 00 00 
17:58:04:2470 Rx 1 0x1DD1601 x 8 F5 15 CC 15 FD 15 00 00 
17:58:04:2476 Rx 1 0x1DD1701 x 8 ED 15 77 15 56 5A 00 00 
17:58:04:2485 Rx 1 0x1DD1602 x 8 E6 15 0D 16 03 16 00 00 
17:58:04:2492 Rx 1 0x1DD1702 x 8 73 16 81 15 51 5A 00 00 
17:58:04:3164 Rx 1 0x1DD1000 x 8 01 0C E5 00 3C 03 00 00 
17:58:04:3623 Rx 1 0x1DD1000 x 8 01 0C E8 00 3C 00 00 80 
17:58:04:4379 Rx 1 0x1DD1100 x 8 C4 9A D0 9A C5 9A D5 9A 
17:58:04:4382 Rx 1 0x1DD1200 x 8 E5 9A F0 9A DF 9A E2 9A 
17:58:04:4386 Rx 1 0x1DD1300 x 8 D1 9A E1 9A DF 9A E0 9A 
17:58:04:4389 Rx 1 0x1DD1400 x 8 D3 9A D7 9A D9 9A DC 9A 
17:58:04:4392 Rx 1 0x1DD1500 x 8 BB 9A C4 9A F4 5C 00 00 
17:58:04:4395 Rx 1 0x1DD1101 x 8 C8 9A F6 99 D6 9A D8 9A 
17:58:04:4398 Rx 1 0x1DD1201 x 8 D3 9A D6 9A D8 9A D2 9A 
17:58:04:4401 Rx 1 0x1DD1301 x 8 D5 9A DC 9A DE 9A DA 9A 
17:58:04:4404 Rx 1 0x1DD1401 x 8 D3 9A DA 9A DA 9A E2 9A 
17:58:04:4407 Rx 1 0x1DD1501 x 8 25 98 AC 9A CB 5C 00 00 
17:58:04:4410 Rx 1 0x1DD1102 x 8 D6 9A D9 9A BA 99 D4 9A 
17:58:04:4413 Rx 1 0x1DD1202 x 8 D7 9A D1 9A D6 9A D6 9A 
17:58:04:4417 Rx 1 0x1DD1302 x 8 DB 9A D9 9A D7 9A D9 9A 
17:58:04:4420 Rx 1 0x1DD1402 x 8 00 00 00 00 00 00 00 00 
17:58:04:4423 Rx 1 0x1DD1502 x 8 00 00 00 00 E1 3D 00 00 
17:58:04:4427 Rx 1 0x1DD1600 x 8 C8 15 FF 15 04 16 00 00 
17:58:04:4430 Rx 1 0x1DD1700 x 8 BB 14 60 15 53 5C 00 00 
17:58:04:4436 Rx 1 0x1DD1601 x 8 F5 15 CB 15 FC 15 00 00 
17:58:04:4442 Rx 1 0x1DD1701 x 8 ED 15 76 15 54 5A 00 00 
17:58:04:4451 Rx 1 0x1DD1602 x 8 E5 15 0C 16 02 16 00 00 
17:58:04:4458 Rx 1 0x1DD1702 x 8 71 16 81 15 50 5A 00 00 
17:58:04:5130 Rx 1 0x1DD1000 x 8 01 0C E6 00 3C 03 00 00 
17:58:04:5589 Rx 1 0x1DD1000 x 8 01 0C E8 00 3C 00 00 80 
17:58:04:5713 Rx 1 0x1DD1800 x 8 00 0A 0A 0A 15 00 00 00 
17:58:04:6476 Rx 1 0x1DD1100 x 8 C4 9A D0 9A C4 9A D5 9A 
17:58:04:6480 Rx 1 0x1DD1200 x 8 E4 9A EF 9A E0 9A E2 9A 
17:58:04:6483 Rx 1 0x1DD1300 x 8 D1 9A E1 9A DF 9A DF 9A 
17:58:04:6486 Rx 1 0x1DD1400 x 8 D2 9A D6 9A D9 9A DB 9A 
17:58:04:6489 Rx 1 0x1DD1500 x 8 BA 9A C3 9A F4 5C 00 00 
17:58:04:6492 Rx 1 0x1DD1101 x 8 C8 9A F7 99 D7 9A D7 9A 
17:58:04:6495 Rx 1 0x1DD1201 x 8 D2 9A D6 9A D8 9A D4 9A 
17:58:04:6498 Rx 1 0x1DD1301 x 8 D7 9A DD 9A DF 9A DA 9A 
17:58:04:6501 Rx 1 0x1DD1401 x 8 D5 9A D9 9A DA 9A E3 9A 
17:58:04:6504 Rx 1 0x1DD1501 x 8 25 98 AA 9A CA 5C 00 00 
17:58:04:6508 Rx 1 0x1DD1102 x 8 D6 9A D9 9A BA 99 D2 9A 
17:58:04:6511 Rx 1 0x1DD1202 x 8 D8 9A D0 9A D6 9A D8 9A 
17:58:04:6514 Rx 1 0x1DD1302 x 8 DB 9A DA 9A D6 9A DB 9A 
17:58:04:6517 Rx 1 0x1DD1402 x 8 00 00 00 00 00 00 00 00 
17:58:04:6521 Rx 1 0x1DD1502 x 8 00 00 00 00 E0 3D 00 00 
17:58:04:6524 Rx 1 0x1DD1600 x 8 C8 15 FE 15 03 16 00 00 
17:58:04:6527 Rx 1 0x1DD1700 x 8 BA 14 5C 15 50 5C 00 00 
17:58:04:6533 Rx 1 0x1DD1601 x 8 F5 15 CD 15 FE 15 00 00 
17:58:04:6539 Rx 1 0x1DD1701 x 8 EE 15 78 15 55 5A 00 00 
17:58:04:6548 Rx 1 0x1DD1602 x 8 E6 15 0C 16 03 16 00 00 
17:58:04:6555 Rx 1 0x1DD1702 x 8 72 16 82 15 50 5A 00 00 
17:58:04:7096 Rx 1 0x1DD1000 x 8 01 0C E7 00 3C 03 00 00 
17:58:04:7555 Rx 1 0x1DD1000 x 8 01 0C E8 00 3C 00 00 80 
17:58:04:8442 Rx 1 0x1DD1100 x 8 C5 9A D1 9A C5 9A D6 9A 
17:58:04:8445 Rx 1 0x1DD1200 x 8 E5 9A F0 9A E0 9A E2 9A 
17:58:04:8449 Rx 1 0x1DD1300 x 8 D1 9A E1 9A DF 9A DF 9A 
17:58:04:8452 Rx 1 0x1DD1400 x 8 D3 9A D9 9A DB 9A DC 9A 
17:58:04:8455 Rx 1 0x1DD1500 x 8 BC 9A C5 9A F5 5C 00 00 
17:58:04:8458 Rx 1 0x1DD1101 x 8 C8 9A F6 99 D6 9A D7 9A 
17:58:04:8461 Rx 1 0x1DD1201 x 8 D2 9A D5 9A D9 9A D3 9A 
17:58:04:8464 Rx 1 0x1DD1301 x 8 D6 9A DD 9A DE 9A D9 9A 
17:58:04:8467 Rx 1 0x1DD1401 x 8 D4 9A D9 9A DA 9A E3 9A 
17:58:04:8470 Rx 1 0x1DD1501 x 8 25 98 AA 9A CA 5C 00 00 
17:58:04:8473 Rx 1 0x1DD1102 x 8 D6 9A D8 9A B9 99 D3 9A 
17:58:04:8477 Rx 1 0x1DD1202 x 8 D8 9A D1 9A D5 9A D8 9A 
17:58:04:8480 Rx 1 0x1DD1302 x 8 DD 9A D8 9A D7 9A DA 9A 
17:58:04:8483 Rx 1 0x1DD1402 x 8 00 00 00 00 00 00 00 00 
17:58:04:8487 Rx 1 0x1DD1502 x 8 00 00 00 00 E0 3D 00 00 
17:58:04:8490 Rx 1 0x1DD1600 x 8 C9 15 00 16 03 16 00 00 
17:58:04:8493 Rx 1 0x1DD1700 x 8 BB 14 5E 15 52 5C 00 00 
17:58:04:8499 Rx 1 0x1DD1601 x 8 F5 15 CD 15 FF 15 00 00 
17:58:04:8505 Rx 1 0x1DD1701 x 8 EE 15 78 15 57 5A 00 00 
17:58:04:8514 Rx 1 0x1DD1602 x 8 E7 15 0D 16 04 16 00 00 
17:58:04:8521 Rx 1 0x1DD1702 x 8 72 16 82 15 4F 5A 00 00 
17:58:04:9062 Rx 1 0x1DD1000 x 8 01 0C E5 00 3C 03 00 00 
17:58:04:9521 Rx 1 0x1DD1000 x 8 01 0C E7 00 3C 00 00 80 
17:58:05:0407 Rx 1 0x1DD1100 x 8 C5 9A D1 9A C5 9A D5 9A 
17:58:05:0410 Rx 1 0x1DD1200 x 8 E4 9A EF 9A E0 9A E2 9A 
17:58:05:0414 Rx 1 0x1DD1300 x 8 D2 9A E1 9A E0 9A DF 9A 
17:58:05:0417 Rx 1 0x1DD1400 x 8 D3 9A D8 9A DB 9A DC 9A 
17:58:05:0420 Rx 1 0x1DD1500 x 8 BB 9A C4 9A F4 5C 00 00 
17:58:05:0423 Rx 1 0x1DD1101 x 8 C9 9A F5 99 D6 9A D7 9A 
17:58:05:0426 Rx 1 0x1DD1201 x 8 D1 9A D6 9A D9 9A D4 9A 
17:58:05:0429 Rx 1 0x1DD1301 x 8 D6 9A DD 9A DD 9A D9 9A 
17:58:05:0432 Rx 1 0x1DD1401 x 8 D4 9A DA 9A D9 9A E2 9A 
17:58:05:0436 Rx 1 0x1DD1501 x 8 26 98 AB 9A CB 5C 00 00 
17:58:05:0438 Rx 1 0x1DD1102 x 8 D5 9A D9 9A BA 99 D4 9A 
17:58:05:0441 Rx 1 0x1DD1202 x 8 D8 9A D2 9A D6 9A D7 9A 
17:58:05:0445 Rx 1 0x1DD1302 x 8 DD 9A D9 9A D7 9A DB 9A 
17:58:05:0448 Rx 1 0x1DD1402 x 8 00 00 00 00 00 00 00 00 
17:58:05:0451 Rx 1 0x1DD1502 x 8 00 00 00 00 E1 3D 00 00 
17:58:05:0455 Rx 1 0x1DD1600 x 8 CA 15 00 16 04 16 00 00 
17:58:05:0458 Rx 1 0x1DD1700 x 8 BB 14 5F 15 50 5C 00 00 
17:58:05:0464 Rx 1 0x1DD1601 x 8 F4 15 CC 15 FC 15 00 00 
17:58:05:0470 Rx 1 0x1DD1701 x 8 EC 15 76 15 53 5A 00 00 
17:58:05:0479 Rx 1 0x1DD1602 x 8 E6 15 0D 16 03 16 00 00 
17:58:05:0486 Rx 1 0x1DD1702 x 8 72 16 81 15 4C 5A 00 00 
17:58:05:0713 Rx 1 0x1DD1800 x 8 00 0A 0A 0A 15 00 00 00 
17:58:05:1158 Rx 1 0x1DD1000 x 8 01 0C E5 00 3C 03 00 00 
17:58:05:1617 Rx 1 0x1DD1000 x 8 01 0C E7 00 3C 00 00 80 
17:58:05:2373 Rx 1 0x1DD1100 x 8 C6 9A D0 9A C5 9A D6 9A 
17:58:05:2376 Rx 1 0x1DD1200 x 8 E4 9A EF 9A DF 9A E2 9A 
17:58:05:2379 Rx 1 0x1DD1300 x 8 D2 9A E1 9A E0 9A E1 9A 
17:58:05:2383 Rx 1 0x1DD1400 x 8 D3 9A D7 9A D9 9A DC 9A 
17:58:05:2386 Rx 1 0x1DD1500 x 8 BB 9A C3 9A F4 5C 00 00 
17:58:05:2389 Rx 1 0x1DD1101 x 8 C8 9A F6 99 D6 9A D6 9A 
17:58:05:2392 Rx 1 0x1DD1201 x 8 D2 9A D5 9A D9 9A D2 9A 
17:58:05:2395 Rx 1 0x1DD1301 x 8 D6 9A DC 9A DE 9A D9 9A 
17:58:05:2398 Rx 1 0x1DD1401 x 8 D5 9A D9 9A D9 9A E3 9A 
17:58:05:2401 Rx 1 0x1DD1501 x 8 24 98 AB 9A CA 5C 00 00 
17:58:05:2405 Rx 1 0x1DD1102 x 8 D6 9A D9 9A BA 99 D3 9A 
17:58:05:2408 Rx 1 0x1DD1202 x 8 D8 9A D2 9A D5 9A D7 9A 
17:58:05:2411 Rx 1 0x1DD1302 x 8 DB 9A DA 9A D7 9A DB 9A 
17:58:05:2414 Rx 1 0x1DD1402 x 8 00 00 00 00 00 00 00 00 
17:58:05:2417 Rx 1 0x1DD1502 x 8 00 00 00 00 E0 3D 00 00 
17:58:05:2420 Rx 1 0x1DD1600 x 8 C8 15 FF 15 03 16 00 00 
17:58:05:2424 Rx 1 0x1DD1700 x 8 B9 14 5F 15 52 5C 00 00 
17:58:05:2430 Rx 1 0x1DD1601 x 8 F4 15 CB 15 FD 15 00 00 
17:58:05:2436 Rx 1 0x1DD1701 x 8 EC 15 76 15 55 5A 00 00 
17:58:05:2445 Rx 1 0x1DD1602 x 8 E5 15 0D 16 04 16 00 00 
17:58:05:2451 Rx 1 0x1DD1702 x 8 72 16 80 15 4C 5A 00 00 
17:58:05:3124 Rx 1 0x1DD1000 x 8 01 0C E6 00 3C 03 00 00 
17:58:05:3583 Rx 1 0x1DD1000 x 8 01 0C E7 00 3C 00 00 80 
17:58:05:4470 Rx 1 0x1DD1100 x 8 C5 9A CF 9A C5 9A D6 9A 
17:58:05:4473 Rx 1 0x1DD1200 x 8 E4 9A EF 9A DF 9A E2 9A 
17:58:05:4477 Rx 1 0x1DD1300 x 8 D2 9A E2 9A E0 9A E0 9A 
17:58:05:4480 Rx 1 0x1DD1400 x 8 D2 9A D7 9A D9 9A DB 9A 
17:58:05:4483 Rx 1 0x1DD1500 x 8 BA 9A C4 9A F3 5C 00 00 
17:58:05:4486 Rx 1 0x1DD1101 x 8 C8 9A F5 99 D6 9A D7 9A 
17:58:05:4489 Rx 1 0x1DD1201 x 8 D1 9A D6 9A D8 9A D3 9A 
17:58:05:4492 Rx 1 0x1DD1301 x 8 D6 9A DC 9A DF 9A D9 9A 
17:58:05:4495 Rx 1 0x1DD1401 x 8 D5 9A D9 9A DB 9A E4 9A 
17:58:05:4499 Rx 1 0x1DD1501 x 8 25 98 AC 9A CB 5C 00 00 
17:58:05:4502 Rx 1 0x1DD1102 x 8 D6 9A D9 9A BA 99 D4 9A 
17:58:05:4505 Rx 1 0x1DD1202 x 8 D9 9A D1 9A D6 9A D8 9A 
17:58:05:4508 Rx 1 0x1DD1302 x 8 DC 9A DC 9A D8 9A DC 9A 
17:58:05:4511 Rx 1 0x1DD1402 x 8 00 00 00 00 00 00 00 00 
17:58:05:4514 Rx 1 0x1DD1502 x 8 00 00 00 00 E0 3D 00 00 
17:58:05:4518 Rx 1 0x1DD1600 x 8 C7 15 00 16 04 16 00 00 
17:58:05:4521 Rx 1 0x1DD1700 x 8 BA 14 5E 15 51 5C 00 00 
17:58:05:4527 Rx 1 0x1DD1601 x 8 F6 15 CC 15 FE 15 00 00 
17:58:05:4534 Rx 1 0x1DD1701 x 8 EC 15 76 15 55 5A 00 00 
17:58:05:4543 Rx 1 0x1DD1602 x 8 E7 15 0D 16 04 16 00 00 
17:58:05:4549 Rx 1 0x1DD1702 x 8 73 16 82 15 4D 5A 00 00 
17:58:05:5090 Rx 1 0x1DD1000 x 8 01 0C E5 00 3C 03 00 00 
17:58:05:5549 Rx 1 0x1DD1000 x 8 01 0C E8 00 3C 00 00 80 
17:58:05:5714 Rx 1 0x1DD1800 x 8 00 0A 0A 0A 15 00 00 00 
17:58:05:6436 Rx 1 0x1DD1100 x 8 C4 9A D1 9A C6 9A D6 9A 
17:58:05:6439 Rx 1 0x1DD1200 x 8 E5 9A EF 9A DF 9A E2 9A 
17:58:05:6442 Rx 1 0x1DD1300 x 8 D2 9A E0 9A E0 9A E0 9A 
17:58:05:6446 Rx 1 0x1DD1400 x 8 D3 9A D7 9A DB 9A DB 9A 
17:58:05:6449 Rx 1 0x1DD1500 x 8 BB 9A C4 9A F5 5C 00 00 
17:58:05:6452 Rx 1 0x1DD1101 x 8 C9 9A F6 99 D5 9A D7 9A 
17:58:05:6455 Rx 1 0x1DD1201 x 8 D2 9A D7 9A D7 9A D3 9A 
17:58:05:6458 Rx 1 0x1DD1301 x 8 D5 9A DC 9A DE 9A D9 9A 
17:58:05:6461 Rx 1 0x1DD1401 x 8 D5 9A DA 9A D9 9A E3 9A 
17:58:05:6465 Rx 1 0x1DD1501 x 8 24 98 AA 9A CB 5C 00 00 
17:58:05:6468 Rx 1 0x1DD1102 x 8 D6 9A D9 9A B9 99 D2 9A 
17:58:05:6471 Rx 1 0x1DD1202 x 8 D8 9A D0 9A D6 9A D7 9A 
17:58:05:6474 Rx 1 0x1DD1302 x 8 DE 9A DA 9A D6 9A DA 9A 
17:58:05:6477 Rx 1 0x1DD1402 x 8 00 00 00 00 00 00 00 00 
17:58:05:6480 Rx 1 0x1DD1502 x 8 00 00 00 00 E1 3D 00 00 
17:58:05:6484 Rx 1 0x1DD1600 x 8 C7 15 FF 15 04 16 00 00 
17:58:05:6487 Rx 1 0x1DD1700 x 8 B9 14 5E 15 52 5C 00 00 
17:58:05:6493 Rx 1 0x1DD1601 x 8 F6 15 CD 15 FD 15 00 00 
17:58:05:6500 Rx 1 0x1DD1701 x 8 EC 15 75 15 55 5A 00 00 
17:58:05:6508 Rx 1 0x1DD1602 x 8 E6 15 0C 16 03 16 00 00 
17:58:05:6515 Rx 1 0x1DD1702 x 8 73 16 7F 15 4F 5A 00 00 
17:58:05:7056 Rx 1 0x1DD1000 x 8 01 0C E9 00 3C 03 00 00 
17:58:05:7515 Rx 1 0x1DD1000 x 8 01 0C E8 00 3C 00 00 80 
17:58:05:8402 Rx 1 0x1DD1100 x 8 C5 9A D1 9A C5 9A D5 9A 
17:58:05:8405 Rx 1 0x1DD1200 x 8 E3 9A F0 9A DF 9A E1 9A 
17:58:05:8408 Rx 1 0x1DD1300 x 8 D1 9A E0 9A DF 9A E0 9A 
17:58:05:8411 Rx 1 0x1DD1400 x 8 D3 9A D8 9A DA 9A DB 9A 
17:58:05:8414 Rx 1 0x1DD1500 x 8 BB 9A C4 9A F5 5C 00 00 
17:58:05:8418 Rx 1 0x1DD1101 x 8 C9 9A F6 99 D6 9A D7 9A 
17:58:05:8421 Rx 1 0x1DD1201 x 8 D0 9A D6 9A D8 9A D2 9A 
17:58:05:8424 Rx 1 0x1DD1301 x 8 D4 9A DC 9A DE 9A D9 9A 
17:58:05:8427 Rx 1 0x1DD1401 x 8 D5 9A DB 9A DA 9A E5 9A 
17:58:05:8430 Rx 1 0x1DD1501 x 8 26 98 AC 9A CB 5C 00 00 
17:58:05:8433 Rx 1 0x1DD1102 x 8 D6 9A D8 9A B9 99 D3 9A 
17:58:05:8436 Rx 1 0x1DD1202 x 8 D7 9A D1 9A D5 9A D7 9A 
17:58:05:8440 Rx 1 0x1DD1302 x 8 DB 9A D9 9A D8 9A DB 9A 
17:58:05:8443 Rx 1 0x1DD1402 x 8 00 00 00 00 00 00 00 00 
17:58:05:8446 Rx 1 0x1DD1502 x 8 00 00 00 00 E0 3D 00 00 
17:58:05:8449 Rx 1 0x1DD1600 x 8 C8 15 FF 15 05 16 00 00 
17:58:05:8453 Rx 1 0x1DD1700 x 8 BA 14 5C 15 54 5C 00 00 
17:58:05:8459 Rx 1 0x1DD1601 x 8 F5 15 CC 15 FD 15 00 00 
17:58:05:8465 Rx 1 0x1DD1701 x 8 EB 15 75 15 53 5A 00 00 
17:58:05:8474 Rx 1 0x1DD1602 x 8 E7 15 0E 16 04 16 00 00 
17:58:05:8481 Rx 1 0x1DD1702 x 8 72 16 81 15 50 5A 00 00 
17:58:05:9153 Rx 1 0x1DD1000 x 8 01 0C E7 00 3C 03 00 00 
17:58:05:9612 Rx 1 0x1DD1000 x 8 01 0C E8 00 3C 00 00 80 
17:58:06:0368 Rx 1 0x1DD1100 x 8 C4 9A D0 9A C5 9A D5 9A 
17:58:06:0371 Rx 1 0x1DD1200 x 8 E4 9A EE 9A DF 9A E1 9A 
17:58:06:0374 Rx 1 0x1DD1300 x 8 D1 9A E1 9A E1 9A E0 9A 
17:58:06:0378 Rx 1 0x1DD1400 x 8 D1 9A D7 9A DA 9A DC 9A 
17:58:06:0381 Rx 1 0x1DD1500 x 8 BA 9A C4 9A F4 5C 00 00 
17:58:06:0384 Rx 1 0x1DD1101 x 8 C8 9A F6 99 D6 9A D6 9A 
17:58:06:0387 Rx 1 0x1DD1201 x 8 D2 9A D6 9A D8 9A D3 9A 
17:58:06:0390 Rx 1 0x1DD1301 x 8 D6 9A DC 9A E0 9A DA 9A 
17:58:06:0393 Rx 1 0x1DD1401 x 8 D4 9A DB 9A DA 9A E4 9A 
17:58:06:0396 Rx 1 0x1DD1501 x 8 26 98 AB 9A CB 5C 00 00 
17:58:06:0399 Rx 1 0x1DD1102 x 8 D6 9A D9 9A BA 99 D3 9A 
17:58:06:0402 Rx 1 0x1DD1202 x 8 D7 9A D1 9A D5 9A D8 9A 
17:58:06:0405 Rx 1 0x1DD1302 x 8 DB 9A D9 9A D6 9A DC 9A 
17:58:06:0409 Rx 1 0x1DD1402 x 8 00 00 00 00 00 00 00 00 
17:58:06:0412 Rx 1 0x1DD1502 x 8 00 00 00 00 E0 3D 00 00 
17:58:06:0416 Rx 1 0x1DD1600 x 8 C9 15 00 16 05 16 00 00 
17:58:06:0417 Rx 1 0x1DD1700 x 8 BA 14 5D 15 54 5C 00 00 
17:58:06:0423 Rx 1 0x1DD1601 x 8 F6 15 CD 15 FE 15 00 00 
17:58:06:0430 Rx 1 0x1DD1701 x 8 ED 15 76 15 53 5A 00 00 
17:58:06:0439 Rx 1 0x1DD1602 x 8 E7 15 0D 16 03 16 00 00 
17:58:06:0445 Rx 1 0x1DD1702 x 8 72 16 80 15 4B 5A 00 00 
17:58:06:0714 Rx 1 0x1DD1800 x 8 00 0A 0A 0A 15 00 00 00 
17:58:06:1118 Rx 1 0x1DD1000 x 8 01 0C E6 00 3C 03 00 00 
17:58:06:1577 Rx 1 0x1DD1000 x 8 01 0C E7 00 3C 00 00 80 
17:58:06:2464 Rx 1 0x1DD1100 x 8 C4 9A D1 9A C5 9A D6 9A 
17:58:06:2467 Rx 1 0x1DD1200 x 8 E5 9A F1 9A DF 9A E3 9A 
17:58:06:2471 Rx 1 0x1DD1300 x 8 D1 9A E1 9A DF 9A DF 9A 
17:58:06:2474 Rx 1 0x1DD1400 x 8 D2 9A D8 9A DB 9A DC 9A 
17:58:06:2477 Rx 1 0x1DD1500 x 8 BA 9A C4 9A F6 5C 00 00 
17:58:06:2480 Rx 1 0x1DD1101 x 8 C8 9A F6 99 D6 9A D7 9A 
17:58:06:2483 Rx 1 0x1DD1201 x 8 D2 9A D6 9A D9 9A D3 9A 
17:58:06:2486 Rx 1 0x1DD1301 x 8 D5 9A DD 9A DF 9A DA 9A 
17:58:06:2489 Rx 1 0x1DD1401 x 8 D4 9A DA 9A DA 9A E3 9A 
17:58:06:2492 Rx 1 0x1DD1501 x 8 28 98 AC 9A CA 5C 00 00 
17:58:06:2495 Rx 1 0x1DD1102 x 8 D6 9A D8 9A B9 99 D3 9A 
17:58:06:2499 Rx 1 0x1DD1202 x 8 D7 9A D1 9A D6 9A D9 9A 
17:58:06:2502 Rx 1 0x1DD1302 x 8 DC 9A D9 9A D6 9A DA 9A 
17:58:06:2505 Rx 1 0x1DD1402 x 8 00 00 00 00 00 00 00 00 
17:58:06:2509 Rx 1 0x1DD1502 x 8 00 00 00 00 E0 3D 00 00 
17:58:06:2512 Rx 1 0x1DD1600 x 8 C8 15 FF 15 05 16 00 00 
17:58:06:2515 Rx 1 0x1DD1700 x 8 B9 14 5D 15 54 5C 00 00 
17:58:06:2521 Rx 1 0x1DD1601 x 8 F4 15 CC 15 FD 15 00 00 
17:58:06:2527 Rx 1 0x1DD1701 x 8 EB 15 74 15 55 5A 00 00 
17:58:06:2536 Rx 1 0x1DD1602 x 8 E6 15 0C 16 03 16 00 00 
17:58:06:2543 Rx 1 0x1DD1702 x 8 72 16 80 15 4C 5A 00 00 
17:58:06:3084 Rx 1 0x1DD1000 x 8 01 0C E6 00 3C 03 00 00 
17:58:06:3543 Rx 1 0x1DD1000 x 8 01 0C E7 00 3C 00 00 80 
17:58:06:4430 Rx 1 0x1DD1100 x 8 C4 9A D0 9A C5 9A D6 9A 
17:58:06:4433 Rx 1 0x1DD1200 x 8 E5 9A F1 9A DF 9A E2 9A 
17:58:06:4437 Rx 1 0x1DD1300 x 8 D2 9A E1 9A E0 9A E0 9A 
17:58:06:4440 Rx 1 0x1DD1400 x 8 D2 9A D8 9A DA 9A DB 9A 
17:58:06:4443 Rx 1 0x1DD1500 x 8 BB 9A C4 9A F4 5C 00 00 
17:58:06:4446 Rx 1 0x1DD1101 x 8 C8 9A F5 99 D5 9A D6 9A 
17:58:06:4449 Rx 1 0x1DD1201 x 8 D2 9A D6 9A D9 9A D3 9A 
17:58:06:4452 Rx 1 0x1DD1301 x 8 D5 9A DC 9A DE 9A DA 9A 
17:58:06:4455 Rx 1 0x1DD1401 x 8 D4 9A DA 9A D9 9A E2 9A 
17:58:06:4458 Rx 1 0x1DD1501 x 8 25 98 AB 9A CB 5C 00 00 
17:58:06:4461 Rx 1 0x1DD1102 x 8 D6 9A D9 9A BB 99 D5 9A 
17:58:06:4464 Rx 1 0x1DD1202 x 8 D8 9A D2 9A D6 9A D8 9A 
17:58:06:4468 Rx 1 0x1DD1302 x 8 DC 9A D9 9A D7 9A DA 9A 
17:58:06:4471 Rx 1 0x1DD1402 x 8 00 00 00 00 00 00 00 00 
17:58:06:4474 Rx 1 0x1DD1502 x 8 00 00 00 00 E0 3D 00 00 
17:58:06:4478 Rx 1 0x1DD1600 x 8 C9 15 FF 15 04 16 00 00 
17:58:06:4481 Rx 1 0x1DD1700 x 8 B8 14 5D 15 54 5C 00 00 
17:58:06:4487 Rx 1 0x1DD1601 x 8 F4 15 CC 15 FC 15 00 00 
17:58:06:4493 Rx 1 0x1DD1701 x 8 EB 15 74 15 55 5A 00 00 
17:58:06:4502 Rx 1 0x1DD1602 x 8 E7 15 0D 16 04 16 00 00 
17:58:06:4509 Rx 1 0x1DD1702 x 8 71 16 7F 15 50 5A 00 00 
17:58:06:5049 Rx 1 0x1DD1000 x 8 01 0C E8 00 3C 03 00 00 
17:58:06:5640 Rx 1 0x1DD1000 x 8 01 0C E7 00 3C 00 00 80 
17:58:06:5714 Rx 1 0x1DD1800 x 8 00 0A 0A 0A 15 00 00 00 
17:58:06:6396 Rx 1 0x1DD1100 x 8 C5 9A CF 9A C5 9A D6 9A 
17:58:06:6399 Rx 1 0x1DD1200 x 8 E5 9A F0 9A DF 9A E2 9A 
17:58:06:6402 Rx 1 0x1DD1300 x 8 D1 9A E0 9A DF 9A E0 9A 
17:58:06:6405 Rx 1 0x1DD1400 x 8 D1 9A D7 9A DA 9A DC 9A 
17:58:06:6409 Rx 1 0x1DD1500 x 8 BB 9A C5 9A F3 5C 00 00 
17:58:06:6412 Rx 1 0x1DD1101 x 8 C9 9A F6 99 D6 9A D7 9A 
17:58:06:6415 Rx 1 0x1DD1201 x 8 D2 9A D7 9A D8 9A D3 9A 
17:58:06:6418 Rx 1 0x1DD1301 x 8 D5 9A DC 9A DF 9A D9 9A 
17:58:06:6421 Rx 1 0x1DD1401 x 8 D5 9A DB 9A DA 9A E2 9A 
17:58:06:6424 Rx 1 0x1DD1501 x 8 23 98 AB 9A CA 5C 00 00 
17:58:06:6427 Rx 1 0x1DD1102 x 8 D6 9A D9 9A B9 99 D3 9A 
17:58:06:6430 Rx 1 0x1DD1202 x 8 D7 9A D2 9A D5 9A D7 9A 
17:58:06:6433 Rx 1 0x1DD1302 x 8 DC 9A D8 9A D5 9A D9 9A 
17:58:06:6437 Rx 1 0x1DD1402 x 8 00 00 00 00 00 00 00 00 
17:58:06:6440 Rx 1 0x1DD1502 x 8 00 00 00 00 E1 3D 00 00 
17:58:06:6443 Rx 1 0x1DD1600 x 8 C8 15 00 16 04 16 00 00 
17:58:06:6447 Rx 1 0x1DD1700 x 8 B8 14 5C 15 54 5C 00 00 
17:58:06:6452 Rx 1 0x1DD1601 x 8 F4 15 CB 15 FD 15 00 00 
17:58:06:6459 Rx 1 0x1DD1701 x 8 EC 15 74 15 53 5A 00 00 
17:58:06:6468 Rx 1 0x1DD1602 x 8 E6 15 0C 16 04 16 00 00 
17:58:06:6474 Rx 1 0x1DD1702 x 8 71 16 7F 15 50 5A 00 00 
17:58:06:7146 Rx 1 0x1DD1000 x 8 01 0C E9 00 3C 03 00 00 
17:58:06:7606 Rx 1 0x1DD1000 x 8 01 0C E7 00 3C 00 00 80 
17:58:06:8362 Rx 1 0x1DD1100 x 8 C3 9A CF 9A C5 9A D6 9A 
17:58:06:8365 Rx 1 0x1DD1200 x 8 E3 9A F0 9A E0 9A E1 9A 
17:58:06:8368 Rx 1 0x1DD1300 x 8 D1 9A E1 9A DF 9A DF 9A 
17:58:06:8371 Rx 1 0x1DD1400 x 8 D1 9A D7 9A DB 9A DB 9A 
17:58:06:8375 Rx 1 0x1DD1500 x 8 BA 9A C5 9A F5 5C 00 00 
17:58:06:8378 Rx 1 0x1DD1101 x 8 C8 9A F5 99 D7 9A D6 9A 
17:58:06:8381 Rx 1 0x1DD1201 x 8 D2 9A D5 9A D9 9A D4 9A 
17:58:06:8384 Rx 1 0x1DD1301 x 8 D5 9A DB 9A DF 9A DA 9A 
17:58:06:8387 Rx 1 0x1DD1401 x 8 D5 9A DA 9A DB 9A E3 9A 
17:58:06:8390 Rx 1 0x1DD1501 x 8 25 98 AB 9A CB 5C 00 00 
17:58:06:8393 Rx 1 0x1DD1102 x 8 D6 9A D8 9A BA 99 D3 9A 
17:58:06:8396 Rx 1 0x1DD1202 x 8 D7 9A D0 9A D6 9A D8 9A 
17:58:06:8399 Rx 1 0x1DD1302 x 8 DD 9A DA 9A D8 9A DB 9A 
17:58:06:8403 Rx 1 0x1DD1402 x 8 00 00 00 00 00 00 00 00 
17:58:06:8406 Rx 1 0x1DD1502 x 8 00 00 00 00 E1 3D 00 00 
17:58:06:8409 Rx 1 0x1DD1600 x 8 CA 15 00 16 05 16 00 00 
17:58:06:8413 Rx 1 0x1DD1700 x 8 B9 14 5D 15 54 5C 00 00 
17:58:06:8419 Rx 1 0x1DD1601 x 8 F5 15 CC 15 FD 15 00 00 
17:58:06:8425 Rx 1 0x1DD1701 x 8 EA 15 75 15 53 5A 00 00 
17:58:06:8434 Rx 1 0x1DD1602 x 8 E6 15 0D 16 04 16 00 00 
17:58:06:8440 Rx 1 0x1DD1702 x 8 71 16 7F 15 4E 5A 00 00 
17:58:06:9113 Rx 1 0x1DD1000 x 8 01 0C E9 00 3C 03 00 00 
17:58:06:9572 Rx 1 0x1DD1000 x 8 01 0C E7 00 3C 00 00 80 
17:58:07:0458 Rx 1 0x1DD1100 x 8 C5 9A D0 9A C3 9A D6 9A 
17:58:07:0461 Rx 1 0x1DD1200 x 8 E4 9A EF 9A E0 9A E2 9A 
17:58:07:0464 Rx 1 0x1DD1300 x 8 D1 9A E0 9A DF 9A DF 9A 
17:58:07:0468 Rx 1 0x1DD1400 x 8 D2 9A D8 9A DA 9A DB 9A 
17:58:07:0471 Rx 1 0x1DD1500 x 8 BB 9A C3 9A F4 5C 00 00 
17:58:07:0474 Rx 1 0x1DD1101 x 8 C8 9A F5 99 D6 9A D7 9A 
17:58:07:0477 Rx 1 0x1DD1201 x 8 D2 9A D6 9A D8 9A D3 9A 
17:58:07:0480 Rx 1 0x1DD1301 x 8 D5 9A DD 9A DE 9A D9 9A 
17:58:07:0483 Rx 1 0x1DD1401 x 8 D5 9A DA 9A DA 9A E3 9A 
17:58:07:0486 Rx 1 0x1DD1501 x 8 24 98 AC 9A CC 5C 00 00 
17:58:07:0489 Rx 1 0x1DD1102 x 8 D5 9A D8 9A BA 99 D2 9A 
17:58:07:0492 Rx 1 0x1DD1202 x 8 D7 9A D1 9A D6 9A D7 9A 
17:58:07:0495 Rx 1 0x1DD1302 x 8 DC 9A DA 9A D7 9A DC 9A 
17:58:07:0499 Rx 1 0x1DD1402 x 8 00 00 00 00 00 00 00 00 
17:58:07:0502 Rx 1 0x1DD1502 x 8 00 00 00 00 DF 3D 00 00 
17:58:07:0506 Rx 1 0x1DD1600 x 8 C8 15 00 16 05 16 00 00 
17:58:07:0509 Rx 1 0x1DD1700 x 8 B8 14 5B 15 57 5C 00 00 
17:58:07:0515 Rx 1 0x1DD1601 x 8 F6 15 CD 15 FE 15 00 00 
17:58:07:0521 Rx 1 0x1DD1701 x 8 EB 15 74 15 54 5A 00 00 
17:58:07:0530 Rx 1 0x1DD1602 x 8 E6 15 0C 16 02 16 00 00 
17:58:07:0536 Rx 1 0x1DD1702 x 8 70 16 7E 15 4F 5A 00 00 
17:58:07:0714 Rx 1 0x1DD1800 x 8 00 0A 0A 0A 15 00 00 00 
17:58:07:1078 Rx 1 0x1DD1000 x 8 01 0C E9 00 3C 03 00 00 
17:58:07:1537 Rx 1 0x1DD1000 x 8 01 0C E8 00 3C 00 00 80 
17:58:07:2424 Rx 1 0x1DD1100 x 8 C5 9A D0 9A C6 9A D5 9A 
17:58:07:2427 Rx 1 0x1DD1200 x 8 E5 9A EF 9A DF 9A E2 9A 
17:58:07:2430 Rx 1 0x1DD1300 x 8 D2 9A E0 9A E0 9A E0 9A 
17:58:07:2433 Rx 1 0x1DD1400 x 8 D2 9A D7 9A DB 9A DB 9A 
17:58:07:2437 Rx 1 0x1DD1500 x 8 BB 9A C4 9A F4 5C 00 00 
17:58:07:2440 Rx 1 0x1DD1101 x 8 C8 9A F5 99 D7 9A D7 9A 
17:58:07:2443 Rx 1 0x1DD1201 x 8 D2 9A D6 9A D8 9A D2 9A 
17:58:07:2446 Rx 1 0x1DD1301 x 8 D5 9A DD 9A DF 9A D9 9A 
17:58:07:2449 Rx 1 0x1DD1401 x 8 D3 9A D9 9A DB 9A E2 9A 
17:58:07:2452 Rx 1 0x1DD1501 x 8 25 98 AC 9A CB 5C 00 00 
17:58:07:2456 Rx 1 0x1DD1102 x 8 D6 9A D9 9A BA 99 D3 9A 
17:58:07:2459 Rx 1 0x1DD1202 x 8 D7 9A D2 9A D5 9A D8 9A 
17:58:07:2462 Rx 1 0x1DD1302 x 8 DB 9A D9 9A D7 9A DA 9A 
17:58:07:2465 Rx 1 0x1DD1402 x 8 00 00 00 00 00 00 00 00 
17:58:07:2468 Rx 1 0x1DD1502 x 8 00 00 00 00 E1 3D 00 00 
17:58:07:2472 Rx 1 0x1DD1600 x 8 C7 15 FE 15 03 16 00 00 
17:58:07:2475 Rx 1 0x1DD1700 x 8 B7 14 5A 15 55 5C 00 00 
17:58:07:2481 Rx 1 0x1DD1601 x 8 F5 15 CB 15 FC 15 00 00 
17:58:07:2487 Rx 1 0x1DD1701 x 8 EB 15 74 15 53 5A 00 00 
17:58:07:2496 Rx 1 0x1DD1602 x 8 E6 15 0D 16 03 16 00 00 
17:58:07:2502 Rx 1 0x1DD1702 x 8 71 16 7F 15 4F 5A 00 00 
17:58:07:3174 Rx 1 0x1DD1000 x 8 01 0C E9 00 3C 03 00 00 
17:58:07:3634 Rx 1 0x1DD1000 x 8 01 0C E8 00 3C 00 00 80 
17:58:07:4390 Rx 1 0x1DD1100 x 8 C4 9A CF 9A C4 9A D6 9A 
17:58:07:4393 Rx 1 0x1DD1200 x 8 E4 9A F0 9A E1 9A E2 9A 
17:58:07:4396 Rx 1 0x1DD1300 x 8 D2 9A E2 9A DF 9A DE 9A 
17:58:07:4399 Rx 1 0x1DD1400 x 8 D2 9A D7 9A DA 9A DB 9A 
17:58:07:4402 Rx 1 0x1DD1500 x 8 BA 9A C4 9A F5 5C 00 00 
17:58:07:4406 Rx 1 0x1DD1101 x 8 C7 9A F6 99 D6 9A D7 9A 
17:58:07:4408 Rx 1 0x1DD1201 x 8 D2 9A D6 9A D7 9A D2 9A 
17:58:07:4412 Rx 1 0x1DD1301 x 8 D5 9A DD 9A DF 9A DA 9A 
17:58:07:4415 Rx 1 0x1DD1401 x 8 D5 9A DA 9A DA 9A E3 9A 
17:58:07:4418 Rx 1 0x1DD1501 x 8 24 98 AC 9A CA 5C 00 00 
17:58:07:4421 Rx 1 0x1DD1102 x 8 D6 9A D8 9A BA 99 D4 9A 
17:58:07:4424 Rx 1 0x1DD1202 x 8 D8 9A D1 9A D6 9A D7 9A 
17:58:07:4427 Rx 1 0x1DD1302 x 8 DC 9A D9 9A D8 9A DA 9A 
17:58:07:4431 Rx 1 0x1DD1402 x 8 00 00 00 00 00 00 00 00 
17:58:07:4434 Rx 1 0x1DD1502 x 8 00 00 00 00 E0 3D 00 00 
17:58:07:4437 Rx 1 0x1DD1600 x 8 C7 15 FF 15 04 16 00 00 
17:58:07:4440 Rx 1 0x1DD1700 x 8 B7 14 5A 15 53 5C 00 00 
17:58:07:4447 Rx 1 0x1DD1601 x 8 F6 15 CE 15 FF 15 00 00 
17:58:07:4453 Rx 1 0x1DD1701 x 8 EC 15 75 15 56 5A 00 00 
17:58:07:4462 Rx 1 0x1DD1602 x 8 E6 15 0C 16 04 16 00 00 
17:58:07:4469 Rx 1 0x1DD1702 x 8 71 16 7E 15 50 5A 00 00 
17:58:07:5141 Rx 1 0x1DD1000 x 8 01 0C E9 00 3C 03 00 00 
17:58:07:5600 Rx 1 0x1DD1000 x 8 01 0C E7 00 3C 00 00 80 
17:58:07:5715 Rx 1 0x1DD1800 x 8 00 0A 0A 0A 15 00 00 00 
17:58:07:6356 Rx 1 0x1DD1100 x 8 C4 9A D0 9A C5 9A D6 9A 
17:58:07:6359 Rx 1 0x1DD1200 x 8 E4 9A F0 9A DF 9A E1 9A 
17:58:07:6362 Rx 1 0x1DD1300 x 8 D1 9A E1 9A DF 9A E0 9A 
17:58:07:6365 Rx 1 0x1DD1400 x 8 D2 9A D8 9A D9 9A DC 9A 
17:58:07:6368 Rx 1 0x1DD1500 x 8 BB 9A C3 9A F4 5C 00 00 
17:58:07:6372 Rx 1 0x1DD1101 x 8 C8 9A F5 99 D6 9A D7 9A 
17:58:07:6375 Rx 1 0x1DD1201 x 8 D2 9A D5 9A D9 9A D4 9A 
17:58:07:6378 Rx 1 0x1DD1301 x 8 D5 9A DD 9A DE 9A D9 9A 
17:58:07:6381 Rx 1 0x1DD1401 x 8 D4 9A D8 9A DA 9A E2 9A 
17:58:07:6384 Rx 1 0x1DD1501 x 8 25 98 AB 9A CB 5C 00 00 
17:58:07:6387 Rx 1 0x1DD1102 x 8 D5 9A D9 9A BA 99 D3 9A 
17:58:07:6390 Rx 1 0x1DD1202 x 8 D7 9A D1 9A D5 9A D6 9A 
17:58:07:6394 Rx 1 0x1DD1302 x 8 DC 9A D9 9A D7 9A DB 9A 
17:58:07:6397 Rx 1 0x1DD1402 x 8 00 00 00 00 00 00 00 00 
17:58:07:6400 Rx 1 0x1DD1502 x 8 00 00 00 00 E0 3D 00 00 
17:58:07:6403 Rx 1 0x1DD1600 x 8 C9 15 FF 15 04 16 00 00 
17:58:07:6406 Rx 1 0x1DD1700 x 8 B7 14 5B 15 55 5C 00 00 
17:58:07:6413 Rx 1 0x1DD1601 x 8 F7 15 CC 15 FD 15 00 00 
17:58:07:6419 Rx 1 0x1DD1701 x 8 EB 15 74 15 55 5A 00 00 
17:58:07:6428 Rx 1 0x1DD1602 x 8 E5 15 0C 16 03 16 00 00 
17:58:07:6435 Rx 1 0x1DD1702 x 8 70 16 7E 15 50 5A 00 00 
17:58:07:7107 Rx 1 0x1DD1000 x 8 01 0C E9 00 3C 03 00 00 
17:58:07:7566 Rx 1 0x1DD1000 x 8 01 0C E7 00 3C 00 00 80 
17:58:07:8453 Rx 1 0x1DD1100 x 8 C5 9A D0 9A C7 9A D6 9A 
17:58:07:8456 Rx 1 0x1DD1200 x 8 E5 9A F0 9A DF 9A E2 9A 
17:58:07:8459 Rx 1 0x1DD1300 x 8 D2 9A E0 9A DE 9A DF 9A 
17:58:07:8463 Rx 1 0x1DD1400 x 8 D3 9A D9 9A DB 9A DB 9A 
17:58:07:8465 Rx 1 0x1DD1500 x 8 BB 9A C4 9A F6 5C 00 00 
17:58:07:8468 Rx 1 0x1DD1101 x 8 C8 9A F6 99 D6 9A D6 9A 
17:58:07:8471 Rx 1 0x1DD1201 x 8 D1 9A D5 9A D9 9A D3 9A 
17:58:07:8474 Rx 1 0x1DD1301 x 8 D6 9A DC 9A DF 9A DA 9A 
17:58:07:8478 Rx 1 0x1DD1401 x 8 D5 9A D8 9A DA 9A E3 9A 
17:58:07:8481 Rx 1 0x1DD1501 x 8 26 98 AC 9A CA 5C 00 00 
17:58:07:8484 Rx 1 0x1DD1102 x 8 D6 9A D8 9A B9 99 D4 9A 
17:58:07:8487 Rx 1 0x1DD1202 x 8 D7 9A D1 9A D5 9A D9 9A 
17:58:07:8490 Rx 1 0x1DD1302 x 8 DC 9A DA 9A D7 9A DA 9A 
17:58:07:8494 Rx 1 0x1DD1402 x 8 00 00 00 00 00 00 00 00 
17:58:07:8497 Rx 1 0x1DD1502 x 8 00 00 00 00 E0 3D 00 00 
17:58:07:8500 Rx 1 0x1DD1600 x 8 C7 15 FE 15 04 16 00 00 
17:58:07:8503 Rx 1 0x1DD1700 x 8 B6 14 59 15 55 5C 00 00 
17:58:07:8510 Rx 1 0x1DD1601 x 8 F6 15 CC 15 FE 15 00 00 
17:58:07:8516 Rx 1 0x1DD1701 x 8 EB 15 72 15 56 5A 00 00 
17:58:07:8525 Rx 1 0x1DD1602 x 8 E5 15 0C 16 03 16 00 00 
17:58:07:8532 Rx 1 0x1DD1702 x 8 70 16 7E 15 50 5A 00 00 
17:58:07:9072 Rx 1 0x1DD1000 x 8 01 0C E8 00 3C 03 00 00 
17:58:07:9532 Rx 1 0x1DD1000 x 8 01 0C E7 00 3C 00 00 80 
17:58:08:0419 Rx 1 0x1DD1100 x 8 C5 9A D0 9A C5 9A D6 9A 
17:58:08:0422 Rx 1 0x1DD1200 x 8 E5 9A EF 9A E0 9A E2 9A 
17:58:08:0425 Rx 1 0x1DD1300 x 8 D0 9A E1 9A DF 9A E0 9A 
17:58:08:0428 Rx 1 0x1DD1400 x 8 D2 9A D7 9A DA 9A DA 9A 
17:58:08:0432 Rx 1 0x1DD1500 x 8 BA 9A C4 9A F5 5C 00 00 
17:58:08:0435 Rx 1 0x1DD1101 x 8 C9 9A F6 99 D7 9A D6 9A 
17:58:08:0438 Rx 1 0x1DD1201 x 8 D1 9A D4 9A D8 9A D4 9A 
17:58:08:0440 Rx 1 0x1DD1301 x 8 D6 9A DC 9A DF 9A D8 9A 
17:58:08:0444 Rx 1 0x1DD1401 x 8 D4 9A DA 9A DA 9A E3 9A 
17:58:08:0447 Rx 1 0x1DD1501 x 8 24 98 AB 9A CB 5C 00 00 
17:58:08:0450 Rx 1 0x1DD1102 x 8 D6 9A D8 9A B9 99 D4 9A 
17:58:08:0453 Rx 1 0x1DD1202 x 8 D8 9A D1 9A D6 9A D8 9A 
17:58:08:0456 Rx 1 0x1DD1302 x 8 DC 9A DB 9A D8 9A DC 9A 
17:58:08:0460 Rx 1 0x1DD1402 x 8 00 00 00 00 00 00 00 00 
17:58:08:0463 Rx 1 0x1DD1502 x 8 00 00 00 00 E0 3D 00 00 
17:58:08:0466 Rx 1 0x1DD1600 x 8 C7 15 FE 15 03 16 00 00 
17:58:08:0469 Rx 1 0x1DD1700 x 8 B7 14 5A 15 57 5C 00 00 
17:58:08:0475 Rx 1 0x1DD1601 x 8 F4 15 CD 15 FD 15 00 00 
17:58:08:0482 Rx 1 0x1DD1701 x 8 EB 15 73 15 53 5A 00 00 
17:58:08:0491 Rx 1 0x1DD1602 x 8 E5 15 0C 16 02 16 00 00 
17:58:08:0497 Rx 1 0x1DD1702 x 8 6F 16 7C 15 50 5A 00 00 
17:58:08:0716 Rx 1 0x1DD1800 x 8 00 0A 0A 0A 15 00 00 00 
17:58:08:1170 Rx 1 0x1DD1000 x 8 01 0C E9 00 3C 03 00 00 
17:58:08:1629 Rx 1 0x1DD1000 x 8 01 0C E8 00 3C 00 00 80 
17:58:08:2385 Rx 1 0x1DD1100 x 8 C5 9A D0 9A C5 9A D6 9A 
17:58:08:2388 Rx 1 0x1DD1200 x 8 E4 9A F1 9A DF 9A E2 9A 
17:58:08:2391 Rx 1 0x1DD1300 x 8 D2 9A E1 9A DE 9A DE 9A 
17:58:08:2394 Rx 1 0x1DD1400 x 8 D2 9A D7 9A D9 9A DB 9A 
17:58:08:2398 Rx 1 0x1DD1500 x 8 BB 9A C3 9A F4 5C 00 00 
17:58:08:2401 Rx 1 0x1DD1101 x 8 C9 9A F5 99 D6 9A D7 9A 
17:58:08:2404 Rx 1 0x1DD1201 x 8 D1 9A D5 9A D8 9A D3 9A 
17:58:08:2407 Rx 1 0x1DD1301 x 8 D5 9A DC 9A E0 9A D9 9A 
17:58:08:2410 Rx 1 0x1DD1401 x 8 D4 9A DB 9A DA 9A E4 9A 
17:58:08:2413 Rx 1 0x1DD1501 x 8 26 98 AC 9A CA 5C 00 00 
17:58:08:2416 Rx 1 0x1DD1102 x 8 D5 9A D9 9A BA 99 D4 9A 
17:58:08:2419 Rx 1 0x1DD1202 x 8 D7 9A D1 9A D6 9A D8 9A 
17:58:08:2422 Rx 1 0x1DD1302 x 8 DB 9A DA 9A D7 9A DA 9A 
17:58:08:2426 Rx 1 0x1DD1402 x 8 00 00 00 00 00 00 00 00 
17:58:08:2429 Rx 1 0x1DD1502 x 8 00 00 00 00 E1 3D 00 00 
17:58:08:2432 Rx 1 0x1DD1600 x 8 C7 15 00 16 05 16 00 00 
17:58:08:2436 Rx 1 0x1DD1700 x 8 B5 14 5A 15 57 5C 00 00 
17:58:08:2442 Rx 1 0x1DD1601 x 8 F6 15 CE 15 FE 15 00 00 
17:58:08:2448 Rx 1 0x1DD1701 x 8 EC 15 74 15 55 5A 00 00 
17:58:08:2457 Rx 1 0x1DD1602 x 8 E7 15 0C 16 04 16 00 00 
17:58:08:2463 Rx 1 0x1DD1702 x 8 70 16 7C 15 53 5A 00 00 
17:58:08:3135 Rx 1 0x1DD1000 x 8 01 0C E9 00 3C 03 00 00 
17:58:08:3595 Rx 1 0x1DD1000 x 8 01 0C E8 00 3C 00 00 80 
17:58:08:4351 Rx 1 0x1DD1100 x 8 C4 9A D0 9A C5 9A D5 9A 
17:58:08:4354 Rx 1 0x1DD1200 x 8 E4 9A F0 9A DF 9A E2 9A 
17:58:08:4357 Rx 1 0x1DD1300 x 8 D1 9A E1 9A E1 9A DF 9A 
17:58:08:4360 Rx 1 0x1DD1400 x 8 D2 9A D8 9A DA 9A DB 9A 
17:58:08:4363 Rx 1 0x1DD1500 x 8 BB 9A C5 9A F4 5C 00 00 
17:58:08:4367 Rx 1 0x1DD1101 x 8 C8 9A F6 99 D6 9A D7 9A 
17:58:08:4370 Rx 1 0x1DD1201 x 8 D2 9A D6 9A D8 9A D3 9A 
17:58:08:4373 Rx 1 0x1DD1301 x 8 D6 9A DD 9A DF 9A DA 9A 
17:58:08:4376 Rx 1 0x1DD1401 x 8 D3 9A DA 9A DB 9A E3 9A 
17:58:08:4379 Rx 1 0x1DD1501 x 8 25 98 AC 9A CB 5C 00 00 
17:58:08:4382 Rx 1 0x1DD1102 x 8 D6 9A D8 9A BA 99 D4 9A 
17:58:08:4385 Rx 1 0x1DD1202 x 8 D7 9A D1 9A D4 9A D6 9A 
17:58:08:4388 Rx 1 0x1DD1302 x 8 DB 9A DA 9A D8 9A DB 9A 
17:58:08:4392 Rx 1 0x1DD1402 x 8 00 00 00 00 00 00 00 00 
17:58:08:4395 Rx 1 0x1DD1502 x 8 00 00 00 00 E1 3D 00 00 
17:58:08:4398 Rx 1 0x1DD1600 x 8 C8 15 FF 15 04 16 00 00 
17:58:08:4402 Rx 1 0x1DD1700 x 8 B5 14 5A 15 55 5C 00 00 
17:58:08:4408 Rx 1 0x1DD1601 x 8 F7 15 CE 15 FF 15 00 00 
17:58:08:4414 Rx 1 0x1DD1701 x 8 ED 15 74 15 54 5A 00 00 
17:58:08:4423 Rx 1 0x1DD1602 x 8 E5 15 0B 16 02 16 00 00 
17:58:08:4429 Rx 1 0x1DD1702 x 8 6E 16 7C 15 4F 5A 00 00 
17:58:08:5101 Rx 1 0x1DD1000 x 8 01 0C E7 00 3C 03 00 00 
17:58:08:5561 Rx 1 0x1DD1000 x 8 01 0C E7 00 3C 00 00 80 
17:58:08:5717 Rx 1 0x1DD1800 x 8 00 0A 0A 0A 15 00 00 00 
17:58:08:6448 Rx 1 0x1DD1100 x 8 C4 9A D0 9A C5 9A D6 9A 
17:58:08:6451 Rx 1 0x1DD1200 x 8 E5 9A EF 9A E0 9A E0 9A 
17:58:08:6454 Rx 1 0x1DD1300 x 8 D2 9A E1 9A E0 9A E0 9A 
17:58:08:6457 Rx 1 0x1DD1400 x 8 D1 9A D8 9A DA 9A DB 9A 
17:58:08:6461 Rx 1 0x1DD1500 x 8 BB 9A C3 9A F3 5C 00 00 
17:58:08:6464 Rx 1 0x1DD1101 x 8 C8 9A F6 99 D6 9A D7 9A 
17:58:08:6467 Rx 1 0x1DD1201 x 8 D1 9A D5 9A D8 9A D3 9A 
17:58:08:6470 Rx 1 0x1DD1301 x 8 D5 9A DC 9A DE 9A D9 9A 
17:58:08:6473 Rx 1 0x1DD1401 x 8 D4 9A D9 9A DA 9A E4 9A 
17:58:08:6476 Rx 1 0x1DD1501 x 8 25 98 AC 9A CB 5C 00 00 
17:58:08:6479 Rx 1 0x1DD1102 x 8 D5 9A D9 9A BA 99 D2 9A 
17:58:08:6482 Rx 1 0x1DD1202 x 8 D7 9A D1 9A D5 9A D8 9A 
17:58:08:6485 Rx 1 0x1DD1302 x 8 DC 9A D9 9A D7 9A D9 9A 
17:58:08:6488 Rx 1 0x1DD1402 x 8 00 00 00 00 00 00 00 00 
17:58:08:6492 Rx 1 0x1DD1502 x 8 00 00 00 00 E0 3D 00 00 
17:58:08:6495 Rx 1 0x1DD1600 x 8 C6 15 FF 15 02 16 00 00 
17:58:08:6498 Rx 1 0x1DD1700 x 8 B5 14 58 15 56 5C 00 00 
17:58:08:6505 Rx 1 0x1DD1601 x 8 F7 15 CD 15 FE 15 00 00 
17:58:08:6511 Rx 1 0x1DD1701 x 8 EB 15 73 15 55 5A 00 00 
17:58:08:6520 Rx 1 0x1DD1602 x 8 E7 15 0E 16 05 16 00 00 
17:58:08:6526 Rx 1 0x1DD1702 x 8 71 16 7F 15 52 5A 00 00 
17:58:08:7068 Rx 1 0x1DD1000 x 8 01 0C E9 00 3C 03 00 00 
17:58:08:7527 Rx 1 0x1DD1000 x 8 01 0C E7 00 3C 00 00 80 
17:58:08:8414 Rx 1 0x1DD1100 x 8 C5 9A D0 9A C6 9A D7 9A 
17:58:08:8417 Rx 1 0x1DD1200 x 8 E4 9A EF 9A DF 9A E1 9A 
17:58:08:8420 Rx 1 0x1DD1300 x 8 D1 9A E0 9A E0 9A DF 9A 
17:58:08:8423 Rx 1 0x1DD1400 x 8 D2 9A D9 9A DB 9A DB 9A 
17:58:08:8426 Rx 1 0x1DD1500 x 8 BB 9A C4 9A F3 5C 00 00 
17:58:08:8430 Rx 1 0x1DD1101 x 8 C7 9A F5 99 D5 9A D7 9A 
17:58:08:8432 Rx 1 0x1DD1201 x 8 D2 9A D6 9A D8 9A D4 9A 
17:58:08:8436 Rx 1 0x1DD1301 x 8 D6 9A DD 9A DF 9A DA 9A 
17:58:08:8439 Rx 1 0x1DD1401 x 8 D4 9A DB 9A DA 9A E4 9A 
17:58:08:8442 Rx 1 0x1DD1501 x 8 25 98 AC 9A CB 5C 00 00 
17:58:08:8445 Rx 1 0x1DD1102 x 8 D6 9A DA 9A B9 99 D4 9A 
17:58:08:8448 Rx 1 0x1DD1202 x 8 D8 9A D2 9A D5 9A D8 9A 
17:58:08:8451 Rx 1 0x1DD1302 x 8 DC 9A DA 9A D8 9A DA 9A 
17:58:08:8454 Rx 1 0x1DD1402 x 8 00 00 00 00 00 00 00 00 
17:58:08:8458 Rx 1 0x1DD1502 x 8 00 00 00 00 E1 3D 00 00 
17:58:08:8461 Rx 1 0x1DD1600 x 8 C8 15 FF 15 03 16 00 00 
17:58:08:8464 Rx 1 0x1DD1700 x 8 B6 14 59 15 56 5C 00 00 
17:58:08:8471 Rx 1 0x1DD1601 x 8 F6 15 CD 15 FE 15 00 00 
17:58:08:8477 Rx 1 0x1DD1701 x 8 EA 15 72 15 59 5A 00 00 
17:58:08:8486 Rx 1 0x1DD1602 x 8 E7 15 0D 16 04 16 00 00 
17:58:08:8492 Rx 1 0x1DD1702 x 8 70 16 7E 15 4E 5A 00 00 
17:58:08:9164 Rx 1 0x1DD1000 x 8 01 0C E8 00 3C 03 00 00 
17:58:08:9624 Rx 1 0x1DD1000 x 8 01 0C E7 00 3C 00 00 80 
17:58:09:0380 Rx 1 0x1DD1100 x 8 C4 9A D0 9A C6 9A D6 9A 
17:58:09:0383 Rx 1 0x1DD1200 x 8 E5 9A EF 9A DF 9A E2 9A 
17:58:09:0386 Rx 1 0x1DD1300 x 8 D1 9A E1 9A DF 9A E0 9A 
17:58:09:0389 Rx 1 0x1DD1400 x 8 D2 9A D8 9A D9 9A DB 9A 
17:58:09:0392 Rx 1 0x1DD1500 x 8 BB 9A C4 9A F4 5C 00 00 
17:58:09:0395 Rx 1 0x1DD1101 x 8 C7 9A F5 99 D6 9A D7 9A 
17:58:09:0398 Rx 1 0x1DD1201 x 8 D2 9A D5 9A D9 9A D3 9A 
17:58:09:0401 Rx 1 0x1DD1301 x 8 D5 9A DD 9A DF 9A D9 9A 
17:58:09:0405 Rx 1 0x1DD1401 x 8 D3 9A D9 9A D9 9A E3 9A 
17:58:09:0408 Rx 1 0x1DD1501 x 8 25 98 AB 9A CA 5C 00 00 
17:58:09:0411 Rx 1 0x1DD1102 x 8 D6 9A D8 9A B9 99 D2 9A 
17:58:09:0414 Rx 1 0x1DD1202 x 8 D8 9A D0 9A D4 9A D8 9A 
17:58:09:0417 Rx 1 0x1DD1302 x 8 DB 9A D9 9A D7 9A DA 9A 
17:58:09:0421 Rx 1 0x1DD1402 x 8 00 00 00 00 00 00 00 00 
17:58:09:0423 Rx 1 0x1DD1502 x 8 00 00 00 00 E1 3D 00 00 
17:58:09:0427 Rx 1 0x1DD1600 x 8 C7 15 FE 15 04 16 00 00 
17:58:09:0430 Rx 1 0x1DD1700 x 8 B4 14 58 15 57 5C 00 00 
17:58:09:0436 Rx 1 0x1DD1601 x 8 F4 15 CB 15 FE 15 00 00 
17:58:09:0443 Rx 1 0x1DD1701 x 8 EB 15 72 15 57 5A 00 00 
17:58:09:0452 Rx 1 0x1DD1602 x 8 E5 15 0C 16 04 16 00 00 
17:58:09:0458 Rx 1 0x1DD1702 x 8 70 16 7D 15 4F 5A 00 00 
17:58:09:0717 Rx 1 0x1DD1800 x 8 00 0A 0A 0A 15 00 00 00 
17:58:09:1130 Rx 1 0x1DD1000 x 8 01 0C E8 00 3C 03 00 00 
17:58:09:1590 Rx 1 0x1DD1000 x 8 01 0C E7 00 3C 00 00 80 
17:58:09:2477 Rx 1 0x1DD1100 x 8 C4 9A D0 9A C5 9A D5 9A 
17:58:09:2480 Rx 1 0x1DD1200 x 8 E5 9A F0 9A DF 9A E2 9A 
17:58:09:2483 Rx 1 0x1DD1300 x 8 D2 9A E1 9A E0 9A DF 9A 
17:58:09:2486 Rx 1 0x1DD1400 x 8 D2 9A D7 9A DA 9A DB 9A 
17:58:09:2489 Rx 1 0x1DD1500 x 8 BB 9A C4 9A F4 5C 00 00 
17:58:09:2492 Rx 1 0x1DD1101 x 8 C8 9A F5 99 D6 9A D7 9A 
17:58:09:2495 Rx 1 0x1DD1201 x 8 D1 9A D6 9A D9 9A D4 9A 
17:58:09:2498 Rx 1 0x1DD1301 x 8 D5 9A DC 9A DE 9A D9 9A 
17:58:09:2501 Rx 1 0x1DD1401 x 8 D5 9A DA 9A D9 9A E2 9A 
17:58:09:2505 Rx 1 0x1DD1501 x 8 26 98 AB 9A CA 5C 00 00 
17:58:09:2508 Rx 1 0x1DD1102 x 8 D6 9A D9 9A B9 99 D3 9A 
17:58:09:2511 Rx 1 0x1DD1202 x 8 D8 9A D1 9A D5 9A D8 9A 
17:58:09:2514 Rx 1 0x1DD1302 x 8 DC 9A DA 9A D7 9A D9 9A 
17:58:09:2518 Rx 1 0x1DD1402 x 8 00 00 00 00 00 00 00 00 
17:58:09:2521 Rx 1 0x1DD1502 x 8 00 00 00 00 E1 3D 00 00 
17:58:09:2524 Rx 1 0x1DD1600 x 8 C8 15 00 16 04 16 00 00 
17:58:09:2527 Rx 1 0x1DD1700 x 8 B5 14 5A 15 56 5C 00 00 
17:58:09:2533 Rx 1 0x1DD1601 x 8 F3 15 CA 15 FC 15 00 00 
17:58:09:2540 Rx 1 0x1DD1701 x 8 E8 15 70 15 57 5A 00 00 
17:58:09:2549 Rx 1 0x1DD1602 x 8 E6 15 0C 16 03 16 00 00 
17:58:09:2555 Rx 1 0x1DD1702 x 8 6F 16 7D 15 51 5A 00 00 
17:58:09:3097 Rx 1 0x1DD1000 x 8 01 0C E9 00 3C 03 00 00 
17:58:09:3556 Rx 1 0x1DD1000 x 8 01 0C E7 00 3C 00 00 80 
17:58:09:4443 Rx 1 0x1DD1100 x 8 C4 9A CF 9A C4 9A D6 9A 
17:58:09:4446 Rx 1 0x1DD1200 x 8 E4 9A EF 9A E0 9A E3 9A 
17:58:09:4449 Rx 1 0x1DD1300 x 8 D1 9A E1 9A E0 9A DF 9A 
17:58:09:4452 Rx 1 0x1DD1400 x 8 D1 9A D6 9A D8 9A DC 9A 
17:58:09:4455 Rx 1 0x1DD1500 x 8 BB 9A C5 9A F4 5C 00 00 
17:58:09:4458 Rx 1 0x1DD1101 x 8 C9 9A F7 99 D6 9A D7 9A 
17:58:09:4461 Rx 1 0x1DD1201 x 8 D1 9A D5 9A D9 9A D3 9A 
17:58:09:4464 Rx 1 0x1DD1301 x 8 D6 9A DD 9A DF 9A DA 9A 
17:58:09:4467 Rx 1 0x1DD1401 x 8 D5 9A DA 9A DB 9A E3 9A 
17:58:09:4471 Rx 1 0x1DD1501 x 8 24 98 AC 9A CA 5C 00 00 
17:58:09:4474 Rx 1 0x1DD1102 x 8 D6 9A D9 9A BA 99 D4 9A 
17:58:09:4477 Rx 1 0x1DD1202 x 8 D8 9A D1 9A D6 9A D7 9A 
17:58:09:4480 Rx 1 0x1DD1302 x 8 DC 9A D9 9A D7 9A DB 9A 
17:58:09:4484 Rx 1 0x1DD1402 x 8 00 00 00 00 00 00 00 00 
17:58:09:4487 Rx 1 0x1DD1502 x 8 00 00 00 00 E0 3D 00 00 
17:58:09:4490 Rx 1 0x1DD1600 x 8 C8 15 00 16 05 16 00 00 
17:58:09:4493 Rx 1 0x1DD1700 x 8 B5 14 59 15 58 5C 00 00 
17:58:09:4499 Rx 1 0x1DD1601 x 8 F4 15 CC 15 FC 15 00 00 
17:58:09:4505 Rx 1 0x1DD1701 x 8 E9 15 70 15 57 5A 00 00 
17:58:09:4514 Rx 1 0x1DD1602 x 8 E6 15 0C 16 03 16 00 00 
17:58:09:4521 Rx 1 0x1DD1702 x 8 71 16 7C 15 52 5A 00 00 
17:58:09:5063 Rx 1 0x1DD1000 x 8 01 0C E8 00 3C 03 00 00 
17:58:09:5522 Rx 1 0x1DD1000 x 8 01 0C E7 00 3C 00 00 80 
17:58:09:5718 Rx 1 0x1DD1800 x 8 00 0A 0A 0A 15 00 00 00 
17:58:09:6409 Rx 1 0x1DD1100 x 8 C4 9A D0 9A C4 9A D6 9A 
17:58:09:6412 Rx 1 0x1DD1200 x 8 E5 9A F0 9A DF 9A E2 9A 
17:58:09:6415 Rx 1 0x1DD1300 x 8 D2 9A E1 9A DF 9A DF 9A 
17:58:09:6418 Rx 1 0x1DD1400 x 8 D2 9A D7 9A D9 9A DB 9A 
17:58:09:6421 Rx 1 0x1DD1500 x 8 BA 9A C4 9A F4 5C 00 00 
17:58:09:6424 Rx 1 0x1DD1101 x 8 C7 9A F6 99 D6 9A D7 9A 
17:58:09:6427 Rx 1 0x1DD1201 x 8 D2 9A D5 9A D6 9A D2 9A 
17:58:09:6430 Rx 1 0x1DD1301 x 8 D5 9A DD 9A DE 9A D8 9A 
17:58:09:6433 Rx 1 0x1DD1401 x 8 D4 9A DB 9A DB 9A E4 9A 
17:58:09:6437 Rx 1 0x1DD1501 x 8 26 98 AC 9A CA 5C 00 00 
17:58:09:6440 Rx 1 0x1DD1102 x 8 D6 9A D8 9A BA 99 D3 9A 
17:58:09:6443 Rx 1 0x1DD1202 x 8 D8 9A D1 9A D5 9A D8 9A 
17:58:09:6446 Rx 1 0x1DD1302 x 8 DD 9A D9 9A D8 9A DB 9A 
17:58:09:6449 Rx 1 0x1DD1402 x 8 00 00 00 00 00 00 00 00 
17:58:09:6453 Rx 1 0x1DD1502 x 8 00 00 00 00 E0 3D 00 00 
17:58:09:6456 Rx 1 0x1DD1600 x 8 C7 15 FF 15 04 16 00 00 
17:58:09:6459 Rx 1 0x1DD1700 x 8 B4 14 57 15 5A 5C 00 00 
17:58:09:6465 Rx 1 0x1DD1601 x 8 F5 15 CC 15 FC 15 00 00 
17:58:09:6472 Rx 1 0x1DD1701 x 8 EA 15 71 15 56 5A 00 00 
17:58:09:6481 Rx 1 0x1DD1602 x 8 E7 15 0D 16 04 16 00 00 
17:58:09:6487 Rx 1 0x1DD1702 x 8 6F 16 7D 15 52 5A 00 00 
17:58:09:7159 Rx 1 0x1DD1000 x 8 01 0C E9 00 3C 03 00 00 
17:58:09:7619 Rx 1 0x1DD1000 x 8 01 0C E7 00 3C 00 00 80 
17:58:09:8375 Rx 1 0x1DD1100 x 8 C4 9A D1 9A C6 9A D5 9A 
17:58:09:8378 Rx 1 0x1DD1200 x 8 E4 9A F0 9A DF 9A E2 9A 
17:58:09:8381 Rx 1 0x1DD1300 x 8 D1 9A E0 9A DF 9A E0 9A 
17:58:09:8384 Rx 1 0x1DD1400 x 8 D4 9A D8 9A D9 9A DC 9A 
17:58:09:8388 Rx 1 0x1DD1500 x 8 BC 9A C3 9A F5 5C 00 00 
17:58:09:8391 Rx 1 0x1DD1101 x 8 C7 9A F5 99 D6 9A D7 9A 
17:58:09:8393 Rx 1 0x1DD1201 x 8 D1 9A D5 9A D8 9A D3 9A 
17:58:09:8396 Rx 1 0x1DD1301 x 8 D5 9A DD 9A DF 9A DA 9A 
17:58:09:8399 Rx 1 0x1DD1401 x 8 D5 9A DC 9A DB 9A E3 9A 
17:58:09:8403 Rx 1 0x1DD1501 x 8 26 98 AC 9A CB 5C 00 00 
17:58:09:8406 Rx 1 0x1DD1102 x 8 D5 9A D9 9A BA 99 D3 9A 
17:58:09:8409 Rx 1 0x1DD1202 x 8 D7 9A D0 9A D6 9A D7 9A 
17:58:09:8412 Rx 1 0x1DD1302 x 8 DB 9A D8 9A D7 9A DA 9A 
17:58:09:8415 Rx 1 0x1DD1402 x 8 00 00 00 00 00 00 00 00 
17:58:09:8419 Rx 1 0x1DD1502 x 8 00 00 00 00 DF 3D 00 00 
17:58:09:8422 Rx 1 0x1DD1600 x 8 C7 15 01 16 04 16 00 00 
17:58:09:8425 Rx 1 0x1DD1700 x 8 B5 14 57 15 58 5C 00 00 
17:58:09:8431 Rx 1 0x1DD1601 x 8 F5 15 CD 15 FD 15 00 00 
17:58:09:8438 Rx 1 0x1DD1701 x 8 EA 15 71 15 59 5A 00 00 
17:58:09:8447 Rx 1 0x1DD1602 x 8 E7 15 0D 16 05 16 00 00 
17:58:09:8453 Rx 1 0x1DD1702 x 8 70 16 7E 15 52 5A 00 00 
17:58:09:9125 Rx 1 0x1DD1000 x 8 01 0C E9 00 3C 03 00 00 
17:58:09:9585 Rx 1 0x1DD1000 x 8 01 0C E8 00 3C 00 00 80 
17:58:10:0472 Rx 1 0x1DD1100 x 8 C4 9A D0 9A C6 9A D6 9A 
17:58:10:0475 Rx 1 0x1DD1200 x 8 E4 9A F0 9A DF 9A E1 9A 
17:58:10:0478 Rx 1 0x1DD1300 x 8 D0 9A E2 9A DF 9A E0 9A 
17:58:10:0481 Rx 1 0x1DD1400 x 8 D2 9A D8 9A DB 9A DC 9A 
17:58:10:0484 Rx 1 0x1DD1500 x 8 BA 9A C5 9A F3 5C 00 00 
17:58:10:0487 Rx 1 0x1DD1101 x 8 C8 9A F6 99 D7 9A D7 9A 
17:58:10:0490 Rx 1 0x1DD1201 x 8 D1 9A D6 9A D9 9A D3 9A 
17:58:10:0494 Rx 1 0x1DD1301 x 8 D5 9A DD 9A DF 9A DA 9A 
17:58:10:0497 Rx 1 0x1DD1401 x 8 D5 9A DA 9A DA 9A E3 9A 
17:58:10:0500 Rx 1 0x1DD1501 x 8 25 98 AB 9A CB 5C 00 00 
17:58:10:0503 Rx 1 0x1DD1102 x 8 D6 9A D9 9A B9 99 D3 9A 
17:58:10:0506 Rx 1 0x1DD1202 x 8 D8 9A D1 9A D5 9A D9 9A 
17:58:10:0509 Rx 1 0x1DD1302 x 8 DC 9A D9 9A D7 9A DA 9A 
17:58:10:0512 Rx 1 0x1DD1402 x 8 00 00 00 00 00 00 00 00 
17:58:10:0516 Rx 1 0x1DD1502 x 8 00 00 00 00 DF 3D 00 00 
17:58:10:0519 Rx 1 0x1DD1600 x 8 C7 15 FF 15 02 16 00 00 
17:58:10:0522 Rx 1 0x1DD1700 x 8 B4 14 57 15 5A 5C 00 00 
17:58:10:0529 Rx 1 0x1DD1601 x 8 F5 15 CC 15 FD 15 00 00 
17:58:10:0535 Rx 1 0x1DD1701 x 8 E9 15 70 15 5A 5A 00 00 
17:58:10:0544 Rx 1 0x1DD1602 x 8 E5 15 0B 16 03 16 00 00 
17:58:10:0550 Rx 1 0x1DD1702 x 8 6F 16 7B 15 53 5A 00 00 
17:58:10:0719 Rx 1 0x1DD1800 x 8 00 0A 0A 0A 15 00 00 00 
17:58:10:1091 Rx 1 0x1DD1000 x 8 01 0C E8 00 3C 03 00 00 
17:58:10:1551 Rx 1 0x1DD1000 x 8 01 0C E8 00 3C 00 00 80 
17:58:10:2437 Rx 1 0x1DD1100 x 8 C5 9A D0 9A C6 9A D6 9A 
17:58:10:2441 Rx 1 0x1DD1200 x 8 E4 9A F0 9A DF 9A E2 9A 
17:58:10:2444 Rx 1 0x1DD1300 x 8 D2 9A E1 9A DF 9A E0 9A 
17:58:10:2447 Rx 1 0x1DD1400 x 8 D1 9A D7 9A DA 9A DB 9A 
17:58:10:2450 Rx 1 0x1DD1500 x 8 BB 9A C4 9A F6 5C 00 00 
17:58:10:2453 Rx 1 0x1DD1101 x 8 C8 9A F6 99 D8 9A D7 9A 
17:58:10:2456 Rx 1 0x1DD1201 x 8 D2 9A D5 9A D7 9A D3 9A 
17:58:10:2459 Rx 1 0x1DD1301 x 8 D5 9A DD 9A DF 9A DA 9A 
17:58:10:2463 Rx 1 0x1DD1401 x 8 D3 9A DA 9A D9 9A E2 9A 
17:58:10:2466 Rx 1 0x1DD1501 x 8 25 98 AB 9A CA 5C 00 00 
17:58:10:2469 Rx 1 0x1DD1102 x 8 D6 9A D8 9A B8 99 D4 9A 
17:58:10:2472 Rx 1 0x1DD1202 x 8 D8 9A D1 9A D5 9A D8 9A 
17:58:10:2475 Rx 1 0x1DD1302 x 8 DC 9A DA 9A D6 9A DA 9A 
17:58:10:2478 Rx 1 0x1DD1402 x 8 00 00 00 00 00 00 00 00 
17:58:10:2481 Rx 1 0x1DD1502 x 8 00 00 00 00 E2 3D 00 00 
17:58:10:2485 Rx 1 0x1DD1600 x 8 C8 15 FF 15 03 16 00 00 
17:58:10:2488 Rx 1 0x1DD1700 x 8 B3 14 57 15 59 5C 00 00 
17:58:10:2494 Rx 1 0x1DD1601 x 8 F6 15 CC 15 FE 15 00 00 
17:58:10:2501 Rx 1 0x1DD1701 x 8 E8 15 70 15 58 5A 00 00 
17:58:10:2509 Rx 1 0x1DD1602 x 8 E7 15 0E 16 04 16 00 00 
17:58:10:2516 Rx 1 0x1DD1702 x 8 70 16 7C 15 53 5A 00 00 
17:58:10:3057 Rx 1 0x1DD1000 x 8 01 0C E8 00 3C 03 00 00 
17:58:10:3517 Rx 1 0x1DD1000 x 8 01 0C E8 00 3C 00 00 80 
17:58:10:4403 Rx 1 0x1DD1100 x 8 C5 9A D0 9A C5 9A D6 9A 
17:58:10:4406 Rx 1 0x1DD1200 x 8 E4 9A F0 9A E1 9A E2 9A 
17:58:10:4410 Rx 1 0x1DD1300 x 8 D0 9A E1 9A DF 9A DF 9A 
17:58:10:4413 Rx 1 0x1DD1400 x 8 D3 9A D7 9A DA 9A DA 9A 
17:58:10:4416 Rx 1 0x1DD1500 x 8 BB 9A C4 9A F5 5C 00 00 
17:58:10:4419 Rx 1 0x1DD1101 x 8 C9 9A F6 99 D6 9A D7 9A 
17:58:10:4422 Rx 1 0x1DD1201 x 8 D1 9A D6 9A D8 9A D3 9A 
17:58:10:4425 Rx 1 0x1DD1301 x 8 D6 9A DD 9A DF 9A D9 9A 
17:58:10:4428 Rx 1 0x1DD1401 x 8 D5 9A DA 9A DA 9A E3 9A 
17:58:10:4432 Rx 1 0x1DD1501 x 8 25 98 AB 9A CB 5C 00 00 
17:58:10:4435 Rx 1 0x1DD1102 x 8 D6 9A D8 9A BA 99 D3 9A 
17:58:10:4438 Rx 1 0x1DD1202 x 8 D8 9A D1 9A D5 9A D7 9A 
17:58:10:4441 Rx 1 0x1DD1302 x 8 DC 9A D9 9A D6 9A DC 9A 
17:58:10:4444 Rx 1 0x1DD1402 x 8 00 00 00 00 00 00 00 00 
17:58:10:4447 Rx 1 0x1DD1502 x 8 00 00 00 00 E0 3D 00 00 
17:58:10:4451 Rx 1 0x1DD1600 x 8 C8 15 FF 15 05 16 00 00 
17:58:10:4454 Rx 1 0x1DD1700 x 8 B2 14 56 15 56 5C 00 00 
17:58:10:4460 Rx 1 0x1DD1601 x 8 F5 15 CC 15 FE 15 00 00 
17:58:10:4467 Rx 1 0x1DD1701 x 8 E9 15 70 15 59 5A 00 00 
17:58:10:4476 Rx 1 0x1DD1602 x 8 E5 15 0C 16 03 16 00 00 
17:58:10:4482 Rx 1 0x1DD1702 x 8 6D 16 7A 15 54 5A 00 00 
17:58:10:5154 Rx 1 0x1DD1000 x 8 01 0C E8 00 3C 03 00 00 
17:58:10:5614 Rx 1 0x1DD1000 x 8 01 0C E7 00 3C 00 00 80 
17:58:10:5720 Rx 1 0x1DD1800 x 8 00 0A 0A 0A 15 00 00 00 
17:58:10:6369 Rx 1 0x1DD1100 x 8 C4 9A CF 9A C6 9A D6 9A 
17:58:10:6372 Rx 1 0x1DD1200 x 8 E5 9A F1 9A E0 9A E2 9A 
17:58:10:6375 Rx 1 0x1DD1300 x 8 D1 9A E2 9A DF 9A E0 9A 
17:58:10:6379 Rx 1 0x1DD1400 x 8 D1 9A D7 9A D9 9A DB 9A 
17:58:10:6382 Rx 1 0x1DD1500 x 8 BA 9A C4 9A F4 5C 00 00 
17:58:10:6385 Rx 1 0x1DD1101 x 8 C8 9A F6 99 D6 9A D7 9A 
17:58:10:6388 Rx 1 0x1DD1201 x 8 D2 9A D5 9A D9 9A D3 9A 
17:58:10:6391 Rx 1 0x1DD1301 x 8 D7 9A DD 9A DF 9A D9 9A 
17:58:10:6394 Rx 1 0x1DD1401 x 8 D5 9A DA 9A DA 9A E4 9A 
17:58:10:6398 Rx 1 0x1DD1501 x 8 26 98 AD 9A CB 5C 00 00 
17:58:10:6401 Rx 1 0x1DD1102 x 8 D6 9A D8 9A B9 99 D3 9A 
17:58:10:6404 Rx 1 0x1DD1202 x 8 D7 9A D0 9A D5 9A D7 9A 
17:58:10:6407 Rx 1 0x1DD1302 x 8 DD 9A DA 9A D9 9A DC 9A 
17:58:10:6410 Rx 1 0x1DD1402 x 8 00 00 00 00 00 00 00 00 
17:58:10:6413 Rx 1 0x1DD1502 x 8 00 00 00 00 E1 3D 00 00 
17:58:10:6417 Rx 1 0x1DD1600 x 8 C8 15 FF 15 04 16 00 00 
17:58:10:6420 Rx 1 0x1DD1700 x 8 B2 14 55 15 58 5C 00 00 
17:58:10:6426 Rx 1 0x1DD1601 x 8 F6 15 CD 15 FF 15 00 00 
17:58:10:6433 Rx 1 0x1DD1701 x 8 EB 15 70 15 58 5A 00 00 
17:58:10:6442 Rx 1 0x1DD1602 x 8 E7 15 0E 16 05 16 00 00 
17:58:10:6448 Rx 1 0x1DD1702 x 8 71 16 7B 15 52 5A 00 00 
17:58:10:7120 Rx 1 0x1DD1000 x 8 01 0C E8 00 3C 03 00 00 
17:58:10:7580 Rx 1 0x1DD1000 x 8 01 0C E7 00 3C 00 00 80 
17:58:10:8467 Rx 1 0x1DD1100 x 8 C4 9A D0 9A C6 9A D5 9A 
17:58:10:8470 Rx 1 0x1DD1200 x 8 E5 9A F0 9A DE 9A E2 9A 
17:58:10:8473 Rx 1 0x1DD1300 x 8 D2 9A E2 9A E0 9A E0 9A 
17:58:10:8476 Rx 1 0x1DD1400 x 8 D3 9A D7 9A DA 9A DB 9A 
17:58:10:8479 Rx 1 0x1DD1500 x 8 BA 9A C5 9A F4 5C 00 00 
17:58:10:8482 Rx 1 0x1DD1101 x 8 C7 9A F6 99 D6 9A D6 9A 
17:58:10:8485 Rx 1 0x1DD1201 x 8 D1 9A D5 9A D8 9A D4 9A 
17:58:10:8488 Rx 1 0x1DD1301 x 8 D6 9A DC 9A DF 9A D9 9A 
17:58:10:8492 Rx 1 0x1DD1401 x 8 D4 9A DA 9A DA 9A E3 9A 
17:58:10:8495 Rx 1 0x1DD1501 x 8 24 98 AB 9A CB 5C 00 00 
17:58:10:8498 Rx 1 0x1DD1102 x 8 D6 9A D8 9A B9 99 D3 9A 
17:58:10:8501 Rx 1 0x1DD1202 x 8 D8 9A D1 9A D5 9A D7 9A 
17:58:10:8504 Rx 1 0x1DD1302 x 8 DD 9A D9 9A D8 9A DB 9A 
17:58:10:8507 Rx 1 0x1DD1402 x 8 00 00 00 00 00 00 00 00 
17:58:10:8511 Rx 1 0x1DD1502 x 8 00 00 00 00 E1 3D 00 00 
17:58:10:8514 Rx 1 0x1DD1600 x 8 C7 15 FF 15 03 16 00 00 
17:58:10:8517 Rx 1 0x1DD1700 x 8 B3 14 56 15 57 5C 00 00 
17:58:10:8523 Rx 1 0x1DD1601 x 8 F6 15 CD 15 FF 15 00 00 
17:58:10:8530 Rx 1 0x1DD1701 x 8 EA 15 70 15 58 5A 00 00 
17:58:10:8539 Rx 1 0x1DD1602 x 8 E7 15 0C 16 03 16 00 00 
17:58:10:8545 Rx 1 0x1DD1702 x 8 6F 16 7B 15 52 5A 00 00 
17:58:10:9086 Rx 1 0x1DD1000 x 8 01 0C E8 00 3C 03 00 00 
17:58:10:9546 Rx 1 0x1DD1000 x 8 01 0C E8 00 3C 00 00 80 
17:58:11:0433 Rx 1 0x1DD1100 x 8 C4 9A D0 9A C5 9A D6 9A 
17:58:11:0436 Rx 1 0x1DD1200 x 8 E5 9A F0 9A DF 9A E3 9A 
17:58:11:0439 Rx 1 0x1DD1300 x 8 D1 9A E0 9A DF 9A E0 9A 
17:58:11:0442 Rx 1 0x1DD1400 x 8 D2 9A D8 9A D9 9A DB 9A 
17:58:11:0445 Rx 1 0x1DD1500 x 8 BA 9A C4 9A F4 5C 00 00 
17:58:11:0448 Rx 1 0x1DD1101 x 8 C9 9A F5 99 D6 9A D6 9A 
17:58:11:0451 Rx 1 0x1DD1201 x 8 D1 9A D5 9A D9 9A D4 9A 
17:58:11:0454 Rx 1 0x1DD1301 x 8 D4 9A DC 9A DE 9A D9 9A 
17:58:11:0457 Rx 1 0x1DD1401 x 8 D4 9A DA 9A DA 9A E3 9A 
17:58:11:0461 Rx 1 0x1DD1501 x 8 25 98 AC 9A CA 5C 00 00 
17:58:11:0464 Rx 1 0x1DD1102 x 8 D6 9A D8 9A B9 99 D2 9A 
17:58:11:0467 Rx 1 0x1DD1202 x 8 D7 9A D1 9A D5 9A D7 9A 
17:58:11:0470 Rx 1 0x1DD1302 x 8 DC 9A D9 9A D7 9A DA 9A 
17:58:11:0474 Rx 1 0x1DD1402 x 8 00 00 00 00 00 00 00 00 
17:58:11:0477 Rx 1 0x1DD1502 x 8 00 00 00 00 E1 3D 00 00 
17:58:11:0480 Rx 1 0x1DD1600 x 8 C8 15 FF 15 04 16 00 00 
17:58:11:0483 Rx 1 0x1DD1700 x 8 B2 14 56 15 58 5C 00 00 
17:58:11:0489 Rx 1 0x1DD1601 x 8 F6 15 CD 15 FF 15 00 00 
17:58:11:0496 Rx 1 0x1DD1701 x 8 E9 15 70 15 58 5A 00 00 
17:58:11:0505 Rx 1 0x1DD1602 x 8 E7 15 0C 16 05 16 00 00 
17:58:11:0511 Rx 1 0x1DD1702 x 8 6F 16 7C 15 53 5A 00 00 
17:58:11:0721 Rx 1 0x1DD1800 x 8 00 0A 0A 0A 15 00 00 00 
17:58:11:1052 Rx 1 0x1DD1000 x 8 01 0C E9 00 3C 03 00 00 
17:58:11:1512 Rx 1 0x1DD1000 x 8 01 0C E7 00 3C 00 00 80 
17:58:11:2398 Rx 1 0x1DD1100 x 8 C4 9A D1 9A C5 9A D6 9A 
17:58:11:2402 Rx 1 0x1DD1200 x 8 E5 9A F1 9A E0 9A E2 9A 
17:58:11:2405 Rx 1 0x1DD1300 x 8 D1 9A E2 9A E0 9A E0 9A 
17:58:11:2408 Rx 1 0x1DD1400 x 8 D1 9A D9 9A D9 9A DB 9A 
17:58:11:2411 Rx 1 0x1DD1500 x 8 BA 9A C3 9A F4 5C 00 00 
17:58:11:2414 Rx 1 0x1DD1101 x 8 C9 9A F6 99 D7 9A D7 9A 
17:58:11:2417 Rx 1 0x1DD1201 x 8 D2 9A D5 9A D8 9A D3 9A 
17:58:11:2420 Rx 1 0x1DD1301 x 8 D6 9A DC 9A DF 9A D8 9A 
17:58:11:2423 Rx 1 0x1DD1401 x 8 D4 9A DA 9A D9 9A E3 9A 
17:58:11:2426 Rx 1 0x1DD1501 x 8 25 98 AB 9A CB 5C 00 00 
17:58:11:2430 Rx 1 0x1DD1102 x 8 D6 9A D8 9A B9 99 D3 9A 
17:58:11:2433 Rx 1 0x1DD1202 x 8 D8 9A D0 9A D4 9A D8 9A 
17:58:11:2436 Rx 1 0x1DD1302 x 8 DC 9A DA 9A D6 9A DC 9A 
17:58:11:2439 Rx 1 0x1DD1402 x 8 00 00 00 00 00 00 00 00 
17:58:11:2443 Rx 1 0x1DD1502 x 8 00 00 00 00 E0 3D 00 00 
17:58:11:2446 Rx 1 0x1DD1600 x 8 C7 15 FE 15 03 16 00 00 
17:58:11:2449 Rx 1 0x1DD1700 x 8 B2 14 56 15 58 5C 00 00 
17:58:11:2455 Rx 1 0x1DD1601 x 8 F5 15 CC 15 FE 15 00 00 
17:58:11:2461 Rx 1 0x1DD1701 x 8 E9 15 6F 15 58 5A 00 00 
17:58:11:2470 Rx 1 0x1DD1602 x 8 E6 15 0D 16 04 16 00 00 
17:58:11:2477 Rx 1 0x1DD1702 x 8 6F 16 7A 15 52 5A 00 00 
17:58:11:3149 Rx 1 0x1DD1000 x 8 01 0C E8 00 3C 03 00 00 
17:58:11:3609 Rx 1 0x1DD1000 x 8 01 0C E7 00 3C 00 00 80 
17:58:11:4364 Rx 1 0x1DD1100 x 8 C5 9A CF 9A C5 9A D6 9A 
17:58:11:4368 Rx 1 0x1DD1200 x 8 E5 9A F0 9A DE 9A E2 9A 
17:58:11:4371 Rx 1 0x1DD1300 x 8 D1 9A E1 9A DF 9A E0 9A 
17:58:11:4374 Rx 1 0x1DD1400 x 8 D2 9A D7 9A DA 9A DB 9A 
17:58:11:4377 Rx 1 0x1DD1500 x 8 BB 9A C4 9A F4 5C 00 00 
17:58:11:4380 Rx 1 0x1DD1101 x 8 C8 9A F6 99 D7 9A D7 9A 
17:58:11:4383 Rx 1 0x1DD1201 x 8 D1 9A D5 9A D9 9A D3 9A 
17:58:11:4386 Rx 1 0x1DD1301 x 8 D6 9A DD 9A E0 9A D9 9A 
17:58:11:4389 Rx 1 0x1DD1401 x 8 D5 9A DA 9A DA 9A E5 9A 
17:58:11:4392 Rx 1 0x1DD1501 x 8 25 98 AB 9A CC 5C 00 00 
17:58:11:4395 Rx 1 0x1DD1102 x 8 D5 9A D8 9A B8 99 D3 9A 
17:58:11:4399 Rx 1 0x1DD1202 x 8 D8 9A D0 9A D6 9A D6 9A 
17:58:11:4402 Rx 1 0x1DD1302 x 8 DB 9A DA 9A D7 9A DB 9A 
17:58:11:4405 Rx 1 0x1DD1402 x 8 00 00 00 00 00 00 00 00 
17:58:11:4409 Rx 1 0x1DD1502 x 8 00 00 00 00 E0 3D 00 00 
17:58:11:4412 Rx 1 0x1DD1600 x 8 C9 15 00 16 04 16 00 00 
17:58:11:4415 Rx 1 0x1DD1700 x 8 B2 14 55 15 57 5C 00 00 
17:58:11:4421 Rx 1 0x1DD1601 x 8 F6 15 CE 15 FF 15 00 00 
17:58:11:4427 Rx 1 0x1DD1701 x 8 E7 15 6F 15 5B 5A 00 00 
17:58:11:4436 Rx 1 0x1DD1602 x 8 E7 15 0D 16 04 16 00 00 
17:58:11:4443 Rx 1 0x1DD1702 x 8 6F 16 7C 15 54 5A 00 00 
17:58:11:5115 Rx 1 0x1DD1000 x 8 01 0C E9 00 3C 03 00 00 
17:58:11:5575 Rx 1 0x1DD1000 x 8 01 0C E8 00 3C 00 00 80 
17:58:11:5722 Rx 1 0x1DD1800 x 8 00 0A 0A 0A 15 00 00 00 
17:58:11:6461 Rx 1 0x1DD1100 x 8 C5 9A D0 9A C5 9A D4 9A 
17:58:11:6464 Rx 1 0x1DD1200 x 8 E3 9A EF 9A E0 9A E3 9A 
17:58:11:6468 Rx 1 0x1DD1300 x 8 D1 9A E1 9A E0 9A DF 9A 
17:58:11:6471 Rx 1 0x1DD1400 x 8 D3 9A D6 9A D9 9A DB 9A 
17:58:11:6474 Rx 1 0x1DD1500 x 8 BA 9A C3 9A F4 5C 00 00 
17:58:11:6477 Rx 1 0x1DD1101 x 8 C8 9A F6 99 D6 9A D6 9A 
17:58:11:6480 Rx 1 0x1DD1201 x 8 D2 9A D6 9A D8 9A D2 9A 
17:58:11:6483 Rx 1 0x1DD1301 x 8 D5 9A DD 9A DE 9A D9 9A 
17:58:11:6486 Rx 1 0x1DD1401 x 8 D3 9A DA 9A D9 9A E3 9A 
17:58:11:6489 Rx 1 0x1DD1501 x 8 25 98 AA 9A CB 5C 00 00 
17:58:11:6492 Rx 1 0x1DD1102 x 8 D7 9A D9 9A BA 99 D3 9A 
17:58:11:6495 Rx 1 0x1DD1202 x 8 D8 9A D1 9A D6 9A D8 9A 
17:58:11:6499 Rx 1 0x1DD1302 x 8 DC 9A DA 9A D7 9A DB 9A 
17:58:11:6502 Rx 1 0x1DD1402 x 8 00 00 00 00 00 00 00 00 
17:58:11:6505 Rx 1 0x1DD1502 x 8 00 00 00 00 E0 3D 00 00 
17:58:11:6509 Rx 1 0x1DD1600 x 8 C7 15 FF 15 04 16 00 00 
17:58:11:6512 Rx 1 0x1DD1700 x 8 B1 14 55 15 58 5C 00 00 
17:58:11:6518 Rx 1 0x1DD1601 x 8 F6 15 CC 15 FE 15 00 00 
17:58:11:6524 Rx 1 0x1DD1701 x 8 E8 15 6E 15 57 5A 00 00 
17:58:11:6533 Rx 1 0x1DD1602 x 8 E6 15 0B 16 03 16 00 00 
17:58:11:6540 Rx 1 0x1DD1702 x 8 6D 16 7A 15 55 5A 00 00 
17:58:11:7081 Rx 1 0x1DD1000 x 8 01 0C E8 00 3C 03 00 00 
17:58:11:7541 Rx 1 0x1DD1000 x 8 01 0C E8 00 3C 00 00 80 
17:58:11:8427 Rx 1 0x1DD1100 x 8 C3 9A D0 9A C4 9A D6 9A 
17:58:11:8431 Rx 1 0x1DD1200 x 8 E4 9A F0 9A E0 9A E3 9A 
17:58:11:8434 Rx 1 0x1DD1300 x 8 D2 9A E0 9A DF 9A E0 9A 
17:58:11:8437 Rx 1 0x1DD1400 x 8 D3 9A D8 9A D8 9A DB 9A 
17:58:11:8440 Rx 1 0x1DD1500 x 8 BB 9A C4 9A F5 5C 00 00 
17:58:11:8443 Rx 1 0x1DD1101 x 8 C7 9A F5 99 D5 9A D7 9A 
17:58:11:8446 Rx 1 0x1DD1201 x 8 D1 9A D4 9A D8 9A D3 9A 
17:58:11:8449 Rx 1 0x1DD1301 x 8 D5 9A DC 9A DF 9A D8 9A 
17:58:11:8452 Rx 1 0x1DD1401 x 8 D3 9A DA 9A DB 9A E3 9A 
17:58:11:8455 Rx 1 0x1DD1501 x 8 25 98 AC 9A CA 5C 00 00 
17:58:11:8458 Rx 1 0x1DD1102 x 8 D6 9A D8 9A B9 99 D4 9A 
17:58:11:8462 Rx 1 0x1DD1202 x 8 D8 9A D1 9A D5 9A D8 9A 
17:58:11:8465 Rx 1 0x1DD1302 x 8 DC 9A DA 9A D7 9A DD 9A 
17:58:11:8468 Rx 1 0x1DD1402 x 8 00 00 00 00 00 00 00 00 
17:58:11:8472 Rx 1 0x1DD1502 x 8 00 00 00 00 E1 3D 00 00 
17:58:11:8475 Rx 1 0x1DD1600 x 8 C8 15 FF 15 05 16 00 00 
17:58:11:8478 Rx 1 0x1DD1700 x 8 B1 14 55 15 58 5C 00 00 
17:58:11:8484 Rx 1 0x1DD1601 x 8 F6 15 CC 15 FE 15 00 00 
17:58:11:8490 Rx 1 0x1DD1701 x 8 E8 15 6F 15 58 5A 00 00 
17:58:11:8499 Rx 1 0x1DD1602 x 8 E6 15 0D 16 03 16 00 00 
17:58:11:8506 Rx 1 0x1DD1702 x 8 6F 16 79 15 52 5A 00 00 
17:58:11:9047 Rx 1 0x1DD1000 x 8 01 0C E8 00 3C 03 00 00 
17:58:11:9638 Rx 1 0x1DD1000 x 8 01 0C E7 00 3C 00 00 80 
***END DATE AND TIME 15:2:2024 17:58:12:85***
***[STOP LOGGING SESSION]***

